(1660538716.612885) slcan0 0AD#0000000000000000
(1660538716.612999) slcan0 0AC#00000000CD8C1600
(1660538716.613241) slcan0 0AB#0000000000000000
(1660538716.613348) slcan0 0A8#2200AE52FFFF0000
(1660538716.613481) slcan0 0A3#EC31C31EEBB5E71E
(1660538716.613639) slcan0 0AA#0400090000000001
(1660538716.616320) slcan0 0AD#0200000000000000
(1660538716.616515) slcan0 0AC#00000200D68C1600
(1660538716.616810) slcan0 0AB#0000000000000000
(1660538716.616995) slcan0 0AA#0400090000000001
(1660538716.617272) slcan0 0A8#2200AE5207000400
(1660538716.617531) slcan0 0A7#040000000A000300
(1660538716.617677) slcan0 0A6#0000070001000000
(1660538716.617988) slcan0 0A5#C9050000000093FE
(1660538716.618310) slcan0 0A4#0000000000000000
(1660538716.618475) slcan0 0A3#EC35C31EEBB5E71E
(1660538716.619718) slcan0 6B1#B1001F00131112BF
(1660538716.625377) slcan0 0AD#0200000000000000
(1660538716.625601) slcan0 0AC#00000000D98C1600
(1660538716.625798) slcan0 0AB#0000000000000000
(1660538716.626069) slcan0 0AA#0400090000000001
(1660538716.626356) slcan0 0A8#2200AE52F0FF0000
(1660538716.626585) slcan0 0A7#050000000C000600
(1660538716.626761) slcan0 0A6#F8FFF9FFF9FF0000
(1660538716.626927) slcan0 0A5#C7050000000093FE
(1660538716.627150) slcan0 0A4#0000000000000000
(1660538716.627421) slcan0 0A3#EC35C31EECB5D71E
(1660538716.634332) slcan0 0AD#0300000000000000
(1660538716.634412) slcan0 0C3#000009A0000000
(1660538716.634566) slcan0 0AC#00000000DC8C1600
(1660538716.634796) slcan0 0AB#0000000000000000
(1660538716.634975) slcan0 0AA#0400090000000001
(1660538716.635323) slcan0 0A8#2200AE520A000000
(1660538716.635431) slcan0 0C4#4D08840532073207
(1660538716.635587) slcan0 0A7#0200000000000300
(1660538716.635744) slcan0 0C0#0000000001000000
(1660538716.635863) slcan0 0A6#0500040004000000
(1660538716.636021) slcan0 6B2#00003F093F097F5C
(1660538716.636127) slcan0 0A5#CC050100000093FE
(1660538716.636339) slcan0 0A4#0000000000000000
(1660538716.636469) slcan0 0A3#EB31C31EECB5D71E
(1660538716.643386) slcan0 0AD#0100000000000000
(1660538716.643666) slcan0 0AC#00000100DF8C1600
(1660538716.643841) slcan0 0AB#0000000000000000
(1660538716.644111) slcan0 0AA#0400090000000001
(1660538716.644329) slcan0 0A8#2200AE5204000200
(1660538716.644560) slcan0 0A7#0400000005000A00
(1660538716.644841) slcan0 0A6#0000040007000000
(1660538716.645098) slcan0 0A5#C9050000000095FE
(1660538716.645310) slcan0 0A4#0000000000000000
(1660538716.645555) slcan0 0A3#EB31C31EECB5D71E
(1660538716.652235) slcan0 0AD#0200000000000000
(1660538716.652512) slcan0 0AC#00000000E28C1600
(1660538716.652780) slcan0 0AB#0000000000000000
(1660538716.653053) slcan0 0AA#0400090000000001
(1660538716.653315) slcan0 0A8#2200AE52FFFF0000
(1660538716.653518) slcan0 0A7#040000000A000600
(1660538716.653793) slcan0 0A6#0000FFFFF6FF0000
(1660538716.653971) slcan0 0A5#CB050000000094FE
(1660538716.654315) slcan0 0A4#0000000000000000
(1660538716.654401) slcan0 0A3#EB31C31EECB5D71E
(1660538716.661315) slcan0 0AD#0100000000000000
(1660538716.661539) slcan0 0AC#0000FFFFE58C1600
(1660538716.661738) slcan0 0AB#0000000000000000
(1660538716.661997) slcan0 0AA#0400090000000001
(1660538716.662314) slcan0 0A8#2200AE520400FCFF
(1660538716.662466) slcan0 0A7#0400000005000300
(1660538716.662752) slcan0 0A6#0500FFFF0A000000
(1660538716.663007) slcan0 0A5#CB050000000093FE
(1660538716.663193) slcan0 0A4#0000000000000000
(1660538716.663460) slcan0 0A3#EB31C31EECB5D71E
(1660538716.670225) slcan0 0AD#0100000000000000
(1660538716.670502) slcan0 0AC#00000000E88C1600
(1660538716.670785) slcan0 0AB#0000000000000000
(1660538716.671039) slcan0 0AA#0400090000000001
(1660538716.671225) slcan0 0A8#2200AE5206000000
(1660538716.671509) slcan0 0A7#0500000007000A00
(1660538716.671690) slcan0 0A6#02000400F9FF0000
(1660538716.671955) slcan0 0A5#CB050000000092FE
(1660538716.672308) slcan0 0A4#0000000000000000
(1660538716.672429) slcan0 0A3#EB31C31EEBB5E71E
(1660538716.679304) slcan0 0AD#0200000000000000
(1660538716.679536) slcan0 0AC#00000000EB8C1600
(1660538716.679730) slcan0 0AB#0000000000000000
(1660538716.680013) slcan0 0AA#0400090000000001
(1660538716.680308) slcan0 0A8#2200AE5209000000
(1660538716.680474) slcan0 0A7#0500000001000100
(1660538716.680711) slcan0 0A6#0500040004000000
(1660538716.680934) slcan0 0A5#CA050000000092FE
(1660538716.681118) slcan0 0A4#0000000000000000
(1660538716.681422) slcan0 0A3#EB35C31EEBB5E71E
(1660538716.683699) slcan0 6B2#00003F093F097F5C
(1660538716.685328) slcan0 0C0#0000000001000000
(1660538716.688284) slcan0 0AD#0200000000000000
(1660538716.712730) slcan0 0AC#0000FEFFEE8C1600
(1660538716.712883) slcan0 0AA#0400090000000001
(1660538716.713043) slcan0 0A8#2200AE52FFFFFCFF
(1660538716.713200) slcan0 0A3#EB31C31EEBB1E71E
(1660538716.713359) slcan0 0A7#0400000007000600
(1660538716.713498) slcan0 0AB#0000000000000000
(1660538716.715277) slcan0 0AD#0000000000000000
(1660538716.715481) slcan0 0AC#00000100F78C1600
(1660538716.715658) slcan0 0AB#0000000000000000
(1660538716.715978) slcan0 0AA#0400090000000001
(1660538716.716278) slcan0 0A8#2200AE5203000200
(1660538716.716454) slcan0 0A7#0500000005000300
(1660538716.716707) slcan0 0A6#0000030001000000
(1660538716.716966) slcan0 0A5#C8050000000095FE
(1660538716.717150) slcan0 0A4#0000000000000000
(1660538716.717421) slcan0 0A3#EB31C31EEBB5E71E
(1660538716.723624) slcan0 6B1#B1001F00131112BF
(1660538716.724276) slcan0 0AD#0000000000000000
(1660538716.724456) slcan0 0AC#00000000FA8C1600
(1660538716.724739) slcan0 0AB#0000000000000000
(1660538716.724992) slcan0 0AA#0400090000000001
(1660538716.725173) slcan0 0A8#2200AE52F8FFFFFF
(1660538716.725452) slcan0 0A7#0600000007000000
(1660538716.725731) slcan0 0A6#FDFFFBFFF9FF0000
(1660538716.725907) slcan0 0A5#C8050000000096FE
(1660538716.726187) slcan0 0A4#0000000000000000
(1660538716.726357) slcan0 0A3#EB31C31EEBB5D71E
(1660538716.731641) slcan0 6B2#00003F093F097F5C
(1660538716.733276) slcan0 0AD#0100000000000000
(1660538716.733498) slcan0 0AC#0000FFFFFD8C1600
(1660538716.733759) slcan0 0AB#0000000000000000
(1660538716.733942) slcan0 0AA#0400090000000001
(1660538716.734282) slcan0 0A8#2200AE52F6FFFEFF
(1660538716.734382) slcan0 0C3#000009A0000000
(1660538716.734528) slcan0 0A7#070000000E000600
(1660538716.734698) slcan0 0A6#FDFFF9FFFFFF0000
(1660538716.734909) slcan0 0A5#C6050000000096FE
(1660538716.735155) slcan0 0A4#0000000000000000
(1660538716.735387) slcan0 0C4#4C08850532073207
(1660538716.735557) slcan0 0A3#EB31C31EECB5D71E
(1660538716.735719) slcan0 0C0#0000000001000000
(1660538716.742277) slcan0 0AD#0100000000000000
(1660538716.742448) slcan0 0AC#0000FFFF008D1600
(1660538716.742732) slcan0 0AB#0000000000000000
(1660538716.742988) slcan0 0AA#0400090000000001
(1660538716.743166) slcan0 0A8#2200AE52F0FFFEFF
(1660538716.743447) slcan0 0A7#040000000C000600
(1660538716.743736) slcan0 0A6#FAFFF6FF05000000
(1660538716.743916) slcan0 0A5#C7050000000096FE
(1660538716.744193) slcan0 0A4#0000000000000000
(1660538716.744360) slcan0 0A3#EB31C31EECB5E71E
(1660538716.751283) slcan0 0AD#0100000000000000
(1660538716.751498) slcan0 0AC#00000000038D1600
(1660538716.751757) slcan0 0AB#0000000000000000
(1660538716.751941) slcan0 0AA#0400090000000001
(1660538716.752278) slcan0 0A8#2200AE5203000000
(1660538716.752385) slcan0 0A7#0700000005000000
(1660538716.752687) slcan0 0A6#0200010004000000
(1660538716.752965) slcan0 0A5#C7050000000097FE
(1660538716.753275) slcan0 0A4#0000000000000000
(1660538716.753371) slcan0 0A3#EB31C31EECB5D71E
(1660538716.760276) slcan0 0AD#0200000000000000
(1660538716.760387) slcan0 0AC#00000200068D1600
(1660538716.760725) slcan0 0AB#0000000000000000
(1660538716.760991) slcan0 0AA#0400090000000001
(1660538716.761179) slcan0 0A8#2200AE52FCFF0400
(1660538716.761402) slcan0 0A7#060000000A000300
(1660538716.761722) slcan0 0A6#FAFF0100FAFF0000
(1660538716.761907) slcan0 0A5#C9050000000097FE
(1660538716.762181) slcan0 0A4#0000000000000000
(1660538716.762361) slcan0 0A3#EC31C31EECB5D71E
(1660538716.769305) slcan0 0AD#0100000000000000
(1660538716.769579) slcan0 0AC#0000FEFF098D1600
(1660538716.769763) slcan0 0AB#0000000000000000
(1660538716.770047) slcan0 0AA#0400090000000001
(1660538716.770300) slcan0 0A8#2200AE52FFFFFCFF
(1660538716.770505) slcan0 0A7#0600000007000300
(1660538716.770763) slcan0 0A6#0200FCFFFFFF0000
(1660538716.771074) slcan0 0A5#C8050000000097FE
(1660538716.771276) slcan0 0A4#0000000000000000
(1660538716.771476) slcan0 0A3#EC31C31EECB5D71E
(1660538716.778273) slcan0 0AD#0400000000000000
(1660538716.778414) slcan0 0AC#000000000C8D1600
(1660538716.778672) slcan0 0AB#0000000000000000
(1660538716.778954) slcan0 0AA#0400090000000001
(1660538716.779134) slcan0 0A8#2200AE52FEFF0000
(1660538716.779408) slcan0 0A7#050000000C000800
(1660538716.779592) slcan0 6B2#00003F093F097F5C
(1660538716.779743) slcan0 0A6#0000FFFF05000000
(1660538716.779905) slcan0 0A5#C6050000000098FE
(1660538716.780140) slcan0 0A4#0000000000000000
(1660538716.780404) slcan0 0A3#EC31C31EECB5D71E
(1660538716.785368) slcan0 0C0#0000000001000000
(1660538716.787164) slcan0 0AD#0300000000000000
(1660538716.787430) slcan0 0AC#000000000F8D1600
(1660538716.787715) slcan0 0AB#0000000000000000
(1660538716.787899) slcan0 0AA#0400090000000001
(1660538716.788241) slcan0 0A8#2200AE52F3FFFFFF
(1660538716.812710) slcan0 0A6#FAFFF9FFF7FF0000
(1660538716.812855) slcan0 0A7#050000000C000600
(1660538716.813015) slcan0 0A5#C5050000000099FE
(1660538716.813243) slcan0 0A3#EB31C31EECB5D71E
(1660538716.813325) slcan0 0A3#EB31C31EECB5D71E
(1660538716.813476) slcan0 0A4#0000000000000000
(1660538716.814241) slcan0 0AD#0000000000000000
(1660538716.814437) slcan0 0AC#00000000188D1600
(1660538716.814652) slcan0 0AB#0000000000000000
(1660538716.814913) slcan0 0AA#0400090000000001
(1660538716.815236) slcan0 0A8#2200AE52FCFF0000
(1660538716.815371) slcan0 0A7#060000000A000600
(1660538716.815643) slcan0 0A6#FDFFFFFFFDFF0000
(1660538716.815922) slcan0 0A5#C7050000000099FE
(1660538716.816100) slcan0 0A4#0000000000000000
(1660538716.816366) slcan0 0A3#EB35C31EECB5E71E
(1660538716.823240) slcan0 0AD#0000000000000000
(1660538716.823401) slcan0 0AC#0000FEFF1B8D1600
(1660538716.823679) slcan0 0AB#0000000000000000
(1660538716.823957) slcan0 0AA#0400090000000001
(1660538716.824141) slcan0 0A8#2200AE52F9FFFCFF
(1660538716.824428) slcan0 0A7#060000000E000100
(1660538716.824687) slcan0 0A6#0000F9FFFDFF0000
(1660538716.824871) slcan0 0A5#C9050000000098FE
(1660538716.825156) slcan0 0A4#0000000000000000
(1660538716.825321) slcan0 0A3#EC31C31EECB5E71E
(1660538716.827565) slcan0 6B1#B1001F00131112BF
(1660538716.827854) slcan0 6B2#00003F093F097F5C
(1660538716.832267) slcan0 0AD#0300000000000000
(1660538716.832514) slcan0 0AC#000001001E8D1600
(1660538716.832819) slcan0 0AB#0000000000000000
(1660538716.832977) slcan0 0AA#0400090000000001
(1660538716.833266) slcan0 0A8#2200AE52FFFF0200
(1660538716.833456) slcan0 0A7#0900000007000800
(1660538716.833706) slcan0 0A6#FDFF0100FAFF0000
(1660538716.833987) slcan0 0A5#C605000000009AFE
(1660538716.834241) slcan0 0A4#0000000000000000
(1660538716.834342) slcan0 0C3#000009A0000000
(1660538716.834491) slcan0 0A3#EC31B31EECB5D71E
(1660538716.835366) slcan0 0C4#4D08850532073207
(1660538716.835536) slcan0 0C0#0000000001000000
(1660538716.841257) slcan0 0AD#0000000000000000
(1660538716.841376) slcan0 0AC#00000000218D1600
(1660538716.841678) slcan0 0AB#0000000000000000
(1660538716.841939) slcan0 0AA#0400090000000001
(1660538716.842121) slcan0 0A8#2200AE52FFFF0000
(1660538716.842389) slcan0 0A7#0400000003000000
(1660538716.842679) slcan0 0A6#0000FFFFFDFF0000
(1660538716.842839) slcan0 0A5#C705000000009AFE
(1660538716.843117) slcan0 0A4#0000000000000000
(1660538716.843396) slcan0 0A3#EB31B31EECB5D71E
(1660538716.850163) slcan0 0AD#0100000000000000
(1660538716.850423) slcan0 0AC#0000FFFF248D1600
(1660538716.850706) slcan0 0AB#0000000000000000
(1660538716.850887) slcan0 0AA#0400090000000001
(1660538716.851148) slcan0 0A8#2200AE52FFFFFCFF
(1660538716.851428) slcan0 0A7#0200000007000600
(1660538716.851613) slcan0 0A6#0200FCFFFDFF0000
(1660538716.851893) slcan0 0A5#C7050000000099FE
(1660538716.852241) slcan0 0A4#0000000000000000
(1660538716.852325) slcan0 0A3#EB31C31EEBB5D71E
(1660538716.859242) slcan0 0AD#FFFF000000000000
(1660538716.859374) slcan0 0AC#00000100278D1600
(1660538716.859672) slcan0 0AB#0000000000000000
(1660538716.859925) slcan0 0AA#0400090000000001
(1660538716.860114) slcan0 0A8#2200AE52FFFF0200
(1660538716.860389) slcan0 0A7#070000000A000600
(1660538716.860662) slcan0 0A6#FDFF010000000000
(1660538716.860847) slcan0 0A5#C8050000000099FE
(1660538716.861125) slcan0 0A4#0000000000000000
(1660538716.861389) slcan0 0A3#EB31C31EECB5D71E
(1660538716.868165) slcan0 0AD#0000000000000000
(1660538716.868423) slcan0 0AC#000001002A8D1600
(1660538716.868711) slcan0 0AB#0000000000000000
(1660538716.868870) slcan0 0AA#0400090000000001
(1660538716.869166) slcan0 0A8#2200AE52FFFF0200
(1660538716.869440) slcan0 0A7#0500000005000300
(1660538716.869624) slcan0 0A6#FDFF010001000000
(1660538716.869877) slcan0 0A5#C805000000009AFE
(1660538716.870243) slcan0 0A4#0000000000000000
(1660538716.870323) slcan0 0A3#EB31C31EECB5D71E
(1660538716.875613) slcan0 6B2#00003F093F097F5C
(1660538716.877241) slcan0 0AD#0100000000000000
(1660538716.877481) slcan0 0AC#000000002D8D1600
(1660538716.877655) slcan0 0AB#0000000000000000
(1660538716.877912) slcan0 0AA#0400090000000001
(1660538716.878249) slcan0 0A8#2200AE520100FEFF
(1660538716.878376) slcan0 0A7#0500000007000D00
(1660538716.878638) slcan0 0A6#02000000FFFF0000
(1660538716.878924) slcan0 0A5#C8050000000099FE
(1660538716.879112) slcan0 0A4#0000000000000000
(1660538716.879371) slcan0 0A3#EB31C31EECB5D71E
(1660538716.885429) slcan0 0C0#0000000001000000
(1660538716.886179) slcan0 0AD#0200000000000000
(1660538716.886456) slcan0 0AC#00000000308D1600
(1660538716.886727) slcan0 0AB#0000000000000000
(1660538716.886911) slcan0 0AA#0400090000000001
(1660538716.887164) slcan0 0A8#2200AE5207000100
(1660538716.887460) slcan0 0A7#0400000001000600
(1660538716.887636) slcan0 0A6#0200050004000000
(1660538716.887895) slcan0 0A5#CA05010000009AFE
(1660538716.888179) slcan0 0A4#0000000000000000
(1660538716.888355) slcan0 0A3#EB35C31EECB5D71E
(1660538716.912823) slcan0 0AC#00000000338D1600
(1660538716.912974) slcan0 0AB#0000000000000000
(1660538716.913128) slcan0 0AA#0400090000000001
(1660538716.913286) slcan0 0A3#EB31C31EECB5D71E
(1660538716.913470) slcan0 0AD#0200000000000000
(1660538716.913588) slcan0 0AD#0100000000000000
(1660538716.913746) slcan0 0AC#00000000398D1600
(1660538716.913907) slcan0 0AE#1000C01915051920
(1660538716.914061) slcan0 0AA#0400090000000001
(1660538716.914259) slcan0 0A8#2200AE5201000100
(1660538716.914418) slcan0 0A7#0700000005000600
(1660538716.914667) slcan0 0A6#00000100FCFF0000
(1660538716.914929) slcan0 0A5#C905000000009CFE
(1660538716.915196) slcan0 0A4#0000000000000000
(1660538716.915395) slcan0 0A3#EB31C31EEBB5D71E
(1660538716.922267) slcan0 0AD#FFFF000000000000
(1660538716.922475) slcan0 0AC#000000003C8D1600
(1660538716.922702) slcan0 0AB#0000000000000000
(1660538716.922933) slcan0 0AA#0400090000000001
(1660538716.923305) slcan0 0A8#2200AE5204000000
(1660538716.923435) slcan0 0A7#0400000007000300
(1660538716.923698) slcan0 0A6#0200010001000000
(1660538716.923812) slcan0 6B2#00003F093F097F5C
(1660538716.923965) slcan0 0A5#CA05000000009AFE
(1660538716.924118) slcan0 0A4#0000000000000000
(1660538716.924361) slcan0 0A3#EB31C31EEBB1D71E
(1660538716.931308) slcan0 0AD#0100000000000000
(1660538716.931465) slcan0 0AC#000000003F8D1600
(1660538716.931737) slcan0 0AB#0000000000000000
(1660538716.931891) slcan0 6B1#B1001F00131112BF
(1660538716.932047) slcan0 0AA#0400090000000001
(1660538716.932161) slcan0 0A8#2200AE5207000100
(1660538716.932415) slcan0 0A7#0500000005000100
(1660538716.932661) slcan0 0A6#0200040005000000
(1660538716.932866) slcan0 0A5#CA050000000099FE
(1660538716.933195) slcan0 0A4#0000000000000000
(1660538716.933338) slcan0 0A3#EC31B31EEBB1D71E
(1660538716.934463) slcan0 0C3#000009A0000000
(1660538716.935395) slcan0 0C4#4D08840532073207
(1660538716.935528) slcan0 0C0#0000000001000000
(1660538716.940226) slcan0 0AD#0100000000000000
(1660538716.940486) slcan0 0AC#00000000428D1600
(1660538716.940683) slcan0 0AB#0000000000000000
(1660538716.940966) slcan0 0AA#0400090000000001
(1660538716.941213) slcan0 0A8#2200AE520D00FEFF
(1660538716.941402) slcan0 0A7#0400000003000100
(1660538716.941675) slcan0 0A6#0800040008000000
(1660538716.941954) slcan0 0A5#CA050000000098FE
(1660538716.942138) slcan0 0A4#0000000000000000
(1660538716.942418) slcan0 0A3#EC31B31EEBB1D71E
(1660538716.949313) slcan0 0AD#0300000000000000
(1660538716.949439) slcan0 0AC#00000000458D1600
(1660538716.949708) slcan0 0AB#0000000000000000
(1660538716.950003) slcan0 0AA#0400090000000001
(1660538716.950177) slcan0 0A8#2200AE520A000000
(1660538716.950458) slcan0 0A7#0700000007000300
(1660538716.950731) slcan0 0A6#05000400FDFF0000
(1660538716.950903) slcan0 0A5#C8050000000099FE
(1660538716.951165) slcan0 0A4#0000000000000000
(1660538716.951356) slcan0 0A3#EB31C31EEBB1E71E
(1660538716.958321) slcan0 0AD#0100000000000000
(1660538716.958588) slcan0 0AC#00000000488D1600
(1660538716.958777) slcan0 0AB#0000000000000000
(1660538716.959084) slcan0 0AA#0400090000000001
(1660538716.959301) slcan0 0A8#2200AE52FEFF0000
(1660538716.959488) slcan0 0A7#0600000007000800
(1660538716.959778) slcan0 0A6#0000FFFF02000000
(1660538716.960038) slcan0 0A5#C8050000000098FE
(1660538716.960302) slcan0 0A4#0000000000000000
(1660538716.960476) slcan0 0A3#EB31B31EECB5D71E
(1660538716.967307) slcan0 0AD#0100000000000000
(1660538716.967429) slcan0 0AC#000000004B8D1600
(1660538716.967709) slcan0 0AB#0000000000000000
(1660538716.967951) slcan0 0AA#0400090000000001
(1660538716.968136) slcan0 0A8#2200AE52F3FF0000
(1660538716.968465) slcan0 0A7#060000000E000100
(1660538716.968741) slcan0 0A6#FAFFFAFFFAFF0000
(1660538716.968902) slcan0 0A5#C9050000000098FE
(1660538716.969201) slcan0 0A4#0000000000000000
(1660538716.969368) slcan0 0A3#EB31B31EECB5D71E
(1660538716.971798) slcan0 6B2#00003F093F097F5C
(1660538716.976204) slcan0 0AD#0100000000000000
(1660538716.976484) slcan0 0AC#000000004E8D1600
(1660538716.976763) slcan0 0AB#0000000000000000
(1660538716.976942) slcan0 0AA#0400090000000001
(1660538716.977204) slcan0 0A8#2200AE52F9FF0000
(1660538716.977478) slcan0 0A7#0500000007000300
(1660538716.977653) slcan0 0A6#FDFFFCFF00000000
(1660538716.977935) slcan0 0A5#C9050000000097FE
(1660538716.978215) slcan0 0A4#0000000000000000
(1660538716.978378) slcan0 0A3#EB31B31EECB5D71E
(1660538716.985292) slcan0 0AD#0200000000000000
(1660538716.985425) slcan0 0C0#0000000001000000
(1660538716.985573) slcan0 0AC#00000000518D1600
(1660538716.985731) slcan0 0AB#0000000000000000
(1660538716.985967) slcan0 0AA#0400090000000001
(1660538716.986146) slcan0 0A8#2200AE5204000000
(1660538716.986415) slcan0 0A7#0600000003000100
(1660538716.986705) slcan0 0A6#0200010002000000
(1660538716.986827) slcan0 0A5#CA050000000097FE
(1660538716.987172) slcan0 0A4#0000000000000000
(1660538716.987423) slcan0 0A3#EB31B31EECB5D71E
(1660538717.012831) slcan0 0AD#0100000000000000
(1660538717.012957) slcan0 0AE#1000C01915051920
(1660538717.013110) slcan0 0AC#00000000548D1600
(1660538717.013274) slcan0 0AA#0400090000000001
(1660538717.013432) slcan0 0A8#2200AE52FCFF0000
(1660538717.013583) slcan0 0AA#0400090000000001
(1660538717.013744) slcan0 0A7#0500000007000000
(1660538717.013857) slcan0 0AB#0000000000000000
(1660538717.014010) slcan0 0A6#FDFF0000F9FF0000
(1660538717.014233) slcan0 0A5#C9050000000098FE
(1660538717.014333) slcan0 0A4#0000000000000000
(1660538717.014487) slcan0 0A3#EB31C31EEBB1D71E
(1660538717.019771) slcan0 6B2#00003F093F097F5C
(1660538717.021369) slcan0 0AD#0200000000000000
(1660538717.021559) slcan0 0AC#000000005D8D1600
(1660538717.021815) slcan0 0AB#0000000000000000
(1660538717.022087) slcan0 0AA#0400090000000001
(1660538717.022261) slcan0 0A8#2200AE52FAFF0000
(1660538717.022552) slcan0 0A7#0200000007000600
(1660538717.022831) slcan0 0A6#0200020000000000
(1660538717.023005) slcan0 0A5#C8050000000096FE
(1660538717.023296) slcan0 0A4#0000000000000000
(1660538717.023579) slcan0 0A3#EB35C31EECB5D71E
(1660538717.030302) slcan0 0AD#0100000000000000
(1660538717.030533) slcan0 0AC#00000000608D1600
(1660538717.030798) slcan0 0AB#0000000000000000
(1660538717.030987) slcan0 0AA#0400090000000001
(1660538717.031300) slcan0 0A8#2200AE5200000000
(1660538717.031529) slcan0 0A7#0500000003000300
(1660538717.031736) slcan0 0A6#00000000FDFF0000
(1660538717.031992) slcan0 0A5#C8050000000096FE
(1660538717.032301) slcan0 0A4#0000000000000000
(1660538717.032436) slcan0 0A3#EB31C31EECB5D71E
(1660538717.034391) slcan0 0C3#000009A0000000
(1660538717.035453) slcan0 0C4#4D08840532073207
(1660538717.035583) slcan0 0C0#0000000001000000
(1660538717.035751) slcan0 6B1#B1001F00131112BF
(1660538717.039301) slcan0 0AD#0200000000000000
(1660538717.039565) slcan0 0AC#00000000638D1600
(1660538717.039744) slcan0 0AB#0000000000000000
(1660538717.040028) slcan0 0AA#0400090000000001
(1660538717.040300) slcan0 0A8#2200AE5202000400
(1660538717.040488) slcan0 0A7#0600000001000600
(1660538717.040749) slcan0 0A6#FEFF050002000000
(1660538717.040934) slcan0 0A5#C8050000000096FE
(1660538717.041215) slcan0 0A4#0000000000000000
(1660538717.041477) slcan0 0A3#EB31C31EECB5D71E
(1660538717.048307) slcan0 0AD#0000000000000000
(1660538717.048535) slcan0 0AC#00000100668D1600
(1660538717.048814) slcan0 0AB#0000000000000000
(1660538717.049073) slcan0 0AA#0400090000000001
(1660538717.049296) slcan0 0A8#2200AE5205000200
(1660538717.049538) slcan0 0A7#0600000005000100
(1660538717.049723) slcan0 0A6#FEFFFDFFFAFF0000
(1660538717.049985) slcan0 0A5#C8050000000096FE
(1660538717.050295) slcan0 0A4#0000000000000000
(1660538717.050425) slcan0 0A3#EB35C31EECB5D71E
(1660538717.057307) slcan0 0AD#FFFF000000000000
(1660538717.057559) slcan0 0AC#00000100698D1600
(1660538717.057740) slcan0 0AB#0000000000000000
(1660538717.058026) slcan0 0AA#0400090000000001
(1660538717.058300) slcan0 0A8#2200AE52FFFF0200
(1660538717.058475) slcan0 0A7#0200000007000300
(1660538717.058756) slcan0 0A6#FEFFFCFF01000000
(1660538717.058973) slcan0 0A5#C7050000000097FE
(1660538717.059202) slcan0 0A4#0000000000000000
(1660538717.059469) slcan0 0A3#EB35C31EECB5E71E
(1660538717.066326) slcan0 0AD#0100000000000000
(1660538717.066508) slcan0 0AC#000000006C8D1600
(1660538717.066807) slcan0 0AB#0000000000000000
(1660538717.067058) slcan0 0AA#0400090000000001
(1660538717.067300) slcan0 0A8#2200AE521300FEFF
(1660538717.067515) slcan0 0A7#0700000007000100
(1660538717.067713) slcan0 6B2#00003F093F097F5C
(1660538717.067857) slcan0 0A6#0B00070004000000
(1660538717.067992) slcan0 0A5#C8050000000098FE
(1660538717.068289) slcan0 0A4#0000000000000000
(1660538717.068403) slcan0 0A3#EB31C31EECB5E71E
(1660538717.075300) slcan0 0AD#0100000000000000
(1660538717.075554) slcan0 0AC#000000006F8D1600
(1660538717.075830) slcan0 0AB#0000000000000000
(1660538717.076014) slcan0 0AA#0400090000000001
(1660538717.076299) slcan0 0A8#2200AE52FDFF0000
(1660538717.076560) slcan0 0A7#0500000007000600
(1660538717.076737) slcan0 0A6#FEFF0000FFFF0000
(1660538717.076987) slcan0 0A5#C7050000000097FE
(1660538717.077291) slcan0 0A4#0000000000000000
(1660538717.077452) slcan0 0A3#EB31C31EECB5D71E
(1660538717.084402) slcan0 0AD#0100000000000000
(1660538717.084580) slcan0 0AC#0000FFFF728D1600
(1660538717.084875) slcan0 0AB#0000000000000000
(1660538717.085133) slcan0 0AA#0400090000000001
(1660538717.085324) slcan0 0A8#2200AE52F6FFFEFF
(1660538717.085460) slcan0 0C0#0000000001000000
(1660538717.085612) slcan0 0A7#040000000E000300
(1660538717.085869) slcan0 0A6#FDFFF9FFF9FF0000
(1660538717.086049) slcan0 0A5#C9050000000097FE
(1660538717.086294) slcan0 0A4#0000000000000000
(1660538717.086471) slcan0 0A3#EB35C31EECB5D71E
(1660538717.112851) slcan0 0AD#0200000000000000
(1660538717.113006) slcan0 0AE#1000C01915051920
(1660538717.113158) slcan0 0AC#0000FEFF758D1600
(1660538717.113325) slcan0 0AB#0000000000000000
(1660538717.113453) slcan0 0A4#0000000000000000
(1660538717.113621) slcan0 0A5#C8050000000098FE
(1660538717.113740) slcan0 0A3#EB31C31EECB5D71E
(1660538717.113866) slcan0 0AA#0400090000000001
(1660538717.115640) slcan0 6B2#00003F093F097F5C
(1660538717.120300) slcan0 0AD#0100000000000000
(1660538717.120481) slcan0 0AC#000000007E8D1600
(1660538717.120758) slcan0 0AB#0000000000000000
(1660538717.121040) slcan0 0AA#0400090000000001
(1660538717.121192) slcan0 0A8#2200AE5203000000
(1660538717.121500) slcan0 0A7#0600000007000800
(1660538717.121773) slcan0 0A6#0200010001000000
(1660538717.121953) slcan0 0A5#C9050000000098FE
(1660538717.122303) slcan0 0A4#0000000000000000
(1660538717.122502) slcan0 0A3#EB31C31EECB5E71E
(1660538717.129303) slcan0 0AD#0100000000000000
(1660538717.129540) slcan0 0AC#00000000818D1600
(1660538717.129806) slcan0 0AB#0000000000000000
(1660538717.129990) slcan0 0AA#0400090000000001
(1660538717.130293) slcan0 0A8#2200AE5201000000
(1660538717.130533) slcan0 0A7#060000000C000800
(1660538717.130695) slcan0 0A6#00000100FEFF0000
(1660538717.130993) slcan0 0A5#C8050000000097FE
(1660538717.131299) slcan0 0A4#0000000000000000
(1660538717.131452) slcan0 0A3#EB31C31EECB5E71E
(1660538717.134422) slcan0 0C3#000009A0000000
(1660538717.135473) slcan0 0C4#4D08840532073207
(1660538717.135631) slcan0 0C0#0000000001000000
(1660538717.138298) slcan0 0AD#0100000000000000
(1660538717.138476) slcan0 0AC#00000000848D1600
(1660538717.138699) slcan0 0AB#0000000000000000
(1660538717.139031) slcan0 0AA#0400090000000001
(1660538717.139200) slcan0 0A8#2200AE52F9FF0000
(1660538717.139500) slcan0 0A7#0500000007000A00
(1660538717.139683) slcan0 6B1#B1001F00131112BF
(1660538717.139846) slcan0 0A6#FDFFFCFF07000000
(1660538717.140010) slcan0 0A5#C7050000000098FE
(1660538717.140266) slcan0 0A4#0000000000000000
(1660538717.140491) slcan0 0A3#EB31C31EECB5D71E
(1660538717.147349) slcan0 0AD#0200000000000000
(1660538717.147608) slcan0 0AC#00000000878D1600
(1660538717.147894) slcan0 0AB#0000000000000000
(1660538717.148076) slcan0 0AA#0400090000000001
(1660538717.148350) slcan0 0A8#2200AE52FFFF0000
(1660538717.148632) slcan0 0A7#0400000005000300
(1660538717.148814) slcan0 0A6#0000FFFFFFFF0000
(1660538717.149043) slcan0 0A5#C8050000000096FE
(1660538717.149349) slcan0 0A4#0000000000000000
(1660538717.149536) slcan0 0A3#EB31C31EECB5D71E
(1660538717.156299) slcan0 0AD#0100000000000000
(1660538717.156557) slcan0 0AC#0000FFFF8A8D1600
(1660538717.156722) slcan0 0AB#0000000000000000
(1660538717.157020) slcan0 0AA#0400090000000001
(1660538717.157301) slcan0 0A8#2200AE52F6FFFEFF
(1660538717.157481) slcan0 0A7#060000000E000300
(1660538717.157711) slcan0 0A6#FDFFF9FFFFFF0000
(1660538717.157945) slcan0 0A5#CA050000000097FE
(1660538717.158204) slcan0 0A4#0000000000000000
(1660538717.158464) slcan0 0A3#EB31B31EECB5D71E
(1660538717.163693) slcan0 6B2#00003F093F097F5C
(1660538717.165298) slcan0 0AD#0200000000000000
(1660538717.165507) slcan0 0AC#0000FFFF8D8D1600
(1660538717.165784) slcan0 0AB#0000000000000000
(1660538717.165963) slcan0 0AA#0400090000000001
(1660538717.166322) slcan0 0A8#2200AE52FCFFFEFF
(1660538717.166496) slcan0 0A7#060000000C000800
(1660538717.166659) slcan0 0A6#0000FCFFFFFF0000
(1660538717.166924) slcan0 0A5#C9050000000098FE
(1660538717.167320) slcan0 0A4#0000000000000000
(1660538717.167433) slcan0 0A3#EB31B31EECB5D71E
(1660538717.174305) slcan0 0AD#0100000000000000
(1660538717.174576) slcan0 0AC#00000000908D1600
(1660538717.174709) slcan0 0AB#0000000000000000
(1660538717.175012) slcan0 0AA#0400090000000001
(1660538717.175298) slcan0 0A8#2200AE52F3FF0000
(1660538717.175478) slcan0 0A7#0500000007000300
(1660538717.175704) slcan0 0A6#FAFFFAFFF6FF0000
(1660538717.176009) slcan0 0A5#C805000000009AFE
(1660538717.176222) slcan0 0A4#0000000000000000
(1660538717.176461) slcan0 0A3#EC31D31EECB5E71E
(1660538717.183234) slcan0 0AD#0100000000000000
(1660538717.183463) slcan0 0AC#00000000938D1600
(1660538717.183706) slcan0 0AB#0000000000000000
(1660538717.183950) slcan0 0AA#0400090000000001
(1660538717.184291) slcan0 0A8#2200AE52FDFF0000
(1660538717.184514) slcan0 0A7#040000000A000800
(1660538717.184675) slcan0 0A6#FEFF0000F9FF0000
(1660538717.184941) slcan0 0A5#C8050000000099FE
(1660538717.185252) slcan0 0A4#0000000000000000
(1660538717.185356) slcan0 0C0#0000000001000000
(1660538717.185514) slcan0 0A3#EC31C31EEBB5D71E
(1660538717.212719) slcan0 0AD#0300000000000000
(1660538717.212951) slcan0 0AE#1000C01915051920
(1660538717.213109) slcan0 0AC#00000000968D1600
(1660538717.213313) slcan0 0AA#0400090000000001
(1660538717.213439) slcan0 0A3#EB35B31EECB5D71E
(1660538717.213568) slcan0 0AB#0000000000000000
(1660538717.213728) slcan0 6B2#00003F093F097F5C
(1660538717.219281) slcan0 0AD#0100000000000000
(1660538717.219509) slcan0 0AC#000002009F8D1600
(1660538717.219745) slcan0 0AB#0000000000000000
(1660538717.219973) slcan0 0AA#0400090000000001
(1660538717.220314) slcan0 0A8#2200AE5207000400
(1660538717.220528) slcan0 0A7#0500000007000100
(1660538717.220713) slcan0 0A6#0000070001000000
(1660538717.220964) slcan0 0A5#C705000000009AFE
(1660538717.221279) slcan0 0A4#0000000000000000
(1660538717.221423) slcan0 0A3#EB35C31EECB5E71E
(1660538717.228299) slcan0 0AD#0200000000000000
(1660538717.228459) slcan0 0AC#00000100A28D1600
(1660538717.228759) slcan0 0AB#0000000000000000
(1660538717.229010) slcan0 0AA#0400090000000001
(1660538717.229184) slcan0 0A8#2200AE52F3FF0200
(1660538717.229482) slcan0 0A7#0500000005000600
(1660538717.229755) slcan0 0A6#F7FFFDFFF1FF0000
(1660538717.229934) slcan0 0A5#C5050000000099FE
(1660538717.230200) slcan0 0A4#0000000000000000
(1660538717.230477) slcan0 0A3#EB31C31EEBB5E71E
(1660538717.234399) slcan0 0C3#000009A0000000
(1660538717.235447) slcan0 0C4#4D08850532073207
(1660538717.235606) slcan0 0C0#0000000001000000
(1660538717.237316) slcan0 0AD#0100000000000000
(1660538717.237501) slcan0 0AC#00000100A58D1600
(1660538717.237760) slcan0 0AB#0000000000000000
(1660538717.237962) slcan0 0AA#0400090000000001
(1660538717.238311) slcan0 0A8#2200AE5204000200
(1660538717.238524) slcan0 0A7#0600000005000800
(1660538717.238709) slcan0 0A6#0000050001000000
(1660538717.238936) slcan0 0A5#C705000000009AFE
(1660538717.239297) slcan0 0A4#0000000000000000
(1660538717.239424) slcan0 0A3#EC31C31EEBB5E71E
(1660538717.243654) slcan0 6B1#B1001F00131112BF
(1660538717.246311) slcan0 0AD#0200000000000000
(1660538717.246550) slcan0 0AC#00000000A88D1600
(1660538717.246734) slcan0 0AB#0000000000000000
(1660538717.246989) slcan0 0AA#0400090000000001
(1660538717.247317) slcan0 0A8#2200AE52F6FF0000
(1660538717.247450) slcan0 0A7#0700000007000300
(1660538717.247730) slcan0 0A6#FAFFFDFFFCFF0000
(1660538717.248004) slcan0 0A5#C8050000000099FE
(1660538717.248188) slcan0 0A4#0000000000000000
(1660538717.248452) slcan0 0A3#EC31C31EECB5E71E
(1660538717.255323) slcan0 0AD#0200000000000000
(1660538717.255507) slcan0 0AC#00000000AB8D1600
(1660538717.255762) slcan0 0AB#0000000000000000
(1660538717.256028) slcan0 0AA#0400090000000001
(1660538717.256221) slcan0 0A8#2200AE520D00FFFF
(1660538717.256502) slcan0 0A7#0100000007000A00
(1660538717.256780) slcan0 0A6#0800050001000000
(1660538717.256935) slcan0 0A5#C7050000000099FE
(1660538717.257297) slcan0 0A4#0000000000000000
(1660538717.257415) slcan0 0A3#EB31C31EECB5E71E
(1660538717.259746) slcan0 6B2#00003F093F097F5C
(1660538717.264307) slcan0 0AD#0000000000000000
(1660538717.264527) slcan0 0AC#00000000AE8D1600
(1660538717.264780) slcan0 0AB#0000000000000000
(1660538717.264990) slcan0 0AA#0400090000000001
(1660538717.265314) slcan0 0A8#2200AE52FFFF0000
(1660538717.265540) slcan0 0A7#0400000005000800
(1660538717.265716) slcan0 0A6#0000FFFF01000000
(1660538717.266001) slcan0 0A5#C505000000009AFE
(1660538717.266299) slcan0 0A4#0000000000000000
(1660538717.266386) slcan0 0A3#EB31C31EECB5E71E
(1660538717.273396) slcan0 0AD#0100000000000000
(1660538717.273581) slcan0 0AC#00000000B18D1600
(1660538717.273787) slcan0 0AB#0000000000000000
(1660538717.274121) slcan0 0AA#0400090000000001
(1660538717.274296) slcan0 0A8#2200AE52FFFF0000
(1660538717.274579) slcan0 0A7#0600000003000300
(1660538717.274867) slcan0 0A6#0000000004000000
(1660538717.274979) slcan0 0A5#C505000000009BFE
(1660538717.275326) slcan0 0A4#0000000000000000
(1660538717.275575) slcan0 0A3#EB31C31EECB5E71E
(1660538717.282297) slcan0 0AD#0200000000000000
(1660538717.282526) slcan0 0AC#0000FFFFB48D1600
(1660538717.282783) slcan0 0AB#0000000000000000
(1660538717.282974) slcan0 0AA#0400090000000001
(1660538717.283296) slcan0 0A8#2200AE520A00FDFF
(1660538717.283531) slcan0 0A7#0400000000000300
(1660538717.283694) slcan0 0A6#0800020007000000
(1660538717.283962) slcan0 0A5#C505000000009CFE
(1660538717.284286) slcan0 0A4#0000000000000000
(1660538717.284429) slcan0 0A3#EB31C31EECB5E71E
(1660538717.285470) slcan0 0C0#0000000001000000
(1660538717.312946) slcan0 0AD#0100000000000000
(1660538717.313032) slcan0 0AE#1000C01915051920
(1660538717.313155) slcan0 0AC#00000000B78D1600
(1660538717.313306) slcan0 0AA#0400090000000001
(1660538717.313480) slcan0 0A3#EB31C31EECB5D71E
(1660538717.313614) slcan0 0AB#0000000000000000
(1660538717.313764) slcan0 6B2#00003F093F097F5C
(1660538717.318310) slcan0 0AD#0000000000000000
(1660538717.318498) slcan0 0AC#00000000C08D1600
(1660538717.318793) slcan0 0AB#0000000000000000
(1660538717.318970) slcan0 0AA#0400090000000001
(1660538717.319272) slcan0 0A8#2200AE52F9FF0000
(1660538717.319529) slcan0 0A7#050000000E000100
(1660538717.319744) slcan0 0A6#FDFFFDFFF6FF0000
(1660538717.319955) slcan0 0A5#C7050000000099FE
(1660538717.320262) slcan0 0A4#0000000000000000
(1660538717.320427) slcan0 0A3#EB31C31EECB5D71E
(1660538717.327306) slcan0 0AD#0100000000000000
(1660538717.327398) slcan0 0AC#00000000C38D1600
(1660538717.327719) slcan0 0AB#0000000000000000
(1660538717.327974) slcan0 0AA#0400090000000001
(1660538717.328136) slcan0 0A8#2200AE52FFFF0000
(1660538717.328414) slcan0 0A7#050000000C000600
(1660538717.328739) slcan0 0A6#00000000F9FF0000
(1660538717.328948) slcan0 0A5#C705000000009AFE
(1660538717.329259) slcan0 0A4#0000000000000000
(1660538717.329496) slcan0 0A3#EB31C31EECB5E71E
(1660538717.334615) slcan0 0C3#000009A0000000
(1660538717.335660) slcan0 0C4#4F08840532073207
(1660538717.335674) slcan0 0C0#0000000001000000
(1660538717.336336) slcan0 0AD#FFFF000000000000
(1660538717.336642) slcan0 0AC#00000000C68D1600
(1660538717.336896) slcan0 0AB#0000000000000000
(1660538717.337077) slcan0 0AA#0400090000000001
(1660538717.337339) slcan0 0A8#2200AE5205000000
(1660538717.337646) slcan0 0A7#0400000005000300
(1660538717.337806) slcan0 0A6#0200020001000000
(1660538717.338089) slcan0 0A5#C705000000009AFE
(1660538717.338373) slcan0 0A4#0000000000000000
(1660538717.338533) slcan0 0A3#EB31C31EECB5E71E
(1660538717.345312) slcan0 0AD#0100000000000000
(1660538717.345474) slcan0 0AC#00000100C98D1600
(1660538717.345773) slcan0 0AB#0000000000000000
(1660538717.346044) slcan0 0AA#0400090000000001
(1660538717.346208) slcan0 0A8#2200AE5204000200
(1660538717.346511) slcan0 0A7#0800000003000300
(1660538717.346798) slcan0 0A6#0000040001000000
(1660538717.346923) slcan0 0A5#C7050000000099FE
(1660538717.347217) slcan0 0A4#0000000000000000
(1660538717.347471) slcan0 0A3#EB31C31EECB5E71E
(1660538717.347958) slcan0 6B1#B1001F00131112BF
(1660538717.354431) slcan0 0AD#0100000000000000
(1660538717.354478) slcan0 0AC#00000100CC8D1600
(1660538717.354983) slcan0 0AB#0000000000000000
(1660538717.354997) slcan0 0AA#0400090000000001
(1660538717.355265) slcan0 0A8#2200AE5218000100
(1660538717.355549) slcan0 0A7#0500000003000A00
(1660538717.355721) slcan0 0A6#0A000D0007000000
(1660538717.355875) slcan0 6B2#00003F093F097F5C
(1660538717.356021) slcan0 0A5#C8050000000099FE
(1660538717.356402) slcan0 0A4#0000000000000000
(1660538717.356424) slcan0 0A3#EC31C31EECB5E71E
(1660538717.363369) slcan0 0AD#0200000000000000
(1660538717.363585) slcan0 0AC#0000FFFFCF8D1600
(1660538717.363769) slcan0 0AB#0000000000000000
(1660538717.363984) slcan0 0AA#0400090000000001
(1660538717.364281) slcan0 0A8#2200AE520100FEFF
(1660538717.364431) slcan0 0A7#0500000005000800
(1660538717.364718) slcan0 0A6#0200FFFF01000000
(1660538717.364994) slcan0 0A5#C7050000000099FE
(1660538717.365109) slcan0 0A4#0000000000000000
(1660538717.365388) slcan0 0A3#EC31C31EECB5D71E
(1660538717.372311) slcan0 0AD#0000000000000000
(1660538717.372495) slcan0 0AC#00000000D28D1600
(1660538717.372783) slcan0 0AB#0000000000000000
(1660538717.373037) slcan0 0AA#0400090000000001
(1660538717.373203) slcan0 0A8#2200AE52FBFF0000
(1660538717.373499) slcan0 0A7#060000000A000300
(1660538717.373753) slcan0 0A6#FDFFFFFFFFFF0000
(1660538717.373907) slcan0 0A5#C7050000000099FE
(1660538717.374369) slcan0 0A4#0000000000000000
(1660538717.374376) slcan0 0A3#EC35C31EECB5D71E
(1660538717.381267) slcan0 0AD#0100000000000000
(1660538717.381507) slcan0 0AC#00000000D58D1600
(1660538717.381736) slcan0 0AB#0000000000000000
(1660538717.382002) slcan0 0AA#0400090000000001
(1660538717.382290) slcan0 0A8#2200AE5206000000
(1660538717.382459) slcan0 0A7#0400000000000600
(1660538717.382758) slcan0 0A6#0200040007000000
(1660538717.382966) slcan0 0A5#C7050000000098FE
(1660538717.383165) slcan0 0A4#0000000000000000
(1660538717.383421) slcan0 0A3#EB35C31EECB5E71E
(1660538717.385542) slcan0 0C0#0000000001000000
(1660538717.412998) slcan0 0AD#FFFF000000000000
(1660538717.413013) slcan0 0AE#1000C01915051920
(1660538717.413216) slcan0 0AC#00000000D88D1600
(1660538717.413331) slcan0 0AA#0400090000000001
(1660538717.413437) slcan0 0A3#EB35C31EECB5D71E
(1660538717.413612) slcan0 0AB#0000000000000000
(1660538717.413758) slcan0 6B2#00003F093F097F5C
(1660538717.417360) slcan0 0AD#0100000000000000
(1660538717.417559) slcan0 0AC#00000000E18D1600
(1660538717.417699) slcan0 0AB#0000000000000000
(1660538717.418027) slcan0 0AA#0400090000000001
(1660538717.418309) slcan0 0A8#2200AE52F0FF0000
(1660538717.418471) slcan0 0A7#0400000007000800
(1660538717.418691) slcan0 0A6#F7FFF9FFF9FF0000
(1660538717.418919) slcan0 0A5#C6050000000097FE
(1660538717.419207) slcan0 0A4#0000000000000000
(1660538717.419472) slcan0 0A3#EC31C31EECB5D71E
(1660538717.426349) slcan0 0AD#FFFF000000000000
(1660538717.426523) slcan0 0AC#00000000E48D1600
(1660538717.426771) slcan0 0AB#0000000000000000
(1660538717.427060) slcan0 0AA#0400090000000001
(1660538717.427232) slcan0 0A8#2200AE520A000000
(1660538717.427512) slcan0 0A7#0400000007000600
(1660538717.427965) slcan0 0A6#0500040001000000
(1660538717.427979) slcan0 0A5#C5050000000096FE
(1660538717.428246) slcan0 0A4#0000000000000000
(1660538717.428415) slcan0 0A3#EB31C31EEBB1E71E
(1660538717.434711) slcan0 0C3#000009A0000000
(1660538717.435359) slcan0 0AD#FFFF000000000000
(1660538717.435375) slcan0 0C4#4C08840532073207
(1660538717.435621) slcan0 0AC#00000000E78D1600
(1660538717.435775) slcan0 0C0#0000000001000000
(1660538717.435932) slcan0 0AB#0000000000000000
(1660538717.436087) slcan0 0AA#0400090000000001
(1660538717.436360) slcan0 0A8#2200AE5209000000
(1660538717.436472) slcan0 0A7#0500000003000300
(1660538717.436737) slcan0 0A6#0500040004000000
(1660538717.437040) slcan0 0A5#C7050000000097FE
(1660538717.437142) slcan0 0A4#0000000000000000
(1660538717.437420) slcan0 0A3#EB31C31EECB5E71E
(1660538717.444484) slcan0 0AD#FFFF000000000000
(1660538717.444508) slcan0 0AC#00000000EA8D1600
(1660538717.444779) slcan0 0AB#0000000000000000
(1660538717.445064) slcan0 0AA#0400090000000001
(1660538717.445227) slcan0 0A8#2200AE52F0FF0000
(1660538717.445552) slcan0 0A7#050000000C000100
(1660538717.445787) slcan0 0A6#F7FFF9FFF9FF0000
(1660538717.445943) slcan0 0A5#C7050000000097FE
(1660538717.446269) slcan0 0A4#0000000000000000
(1660538717.446424) slcan0 0A3#EB31B31EECB5D71E
(1660538717.451822) slcan0 6B1#B1001F00131112BF
(1660538717.452048) slcan0 6B2#00003F093F097F5C
(1660538717.453277) slcan0 0AD#0200000000000000
(1660538717.453544) slcan0 0AC#00000000ED8D1600
(1660538717.453753) slcan0 0AB#0000000000000000
(1660538717.453968) slcan0 0AA#0400090000000001
(1660538717.454197) slcan0 0A8#2200AE52FEFF0000
(1660538717.454615) slcan0 0A7#0500000005000300
(1660538717.454708) slcan0 0A6#0000FFFF04000000
(1660538717.454928) slcan0 0A5#C8050000000096FE
(1660538717.455275) slcan0 0A4#0000000000000000
(1660538717.455434) slcan0 0A3#EB35B31EECB5D71E
(1660538717.462614) slcan0 0AD#0000000000000000
(1660538717.462640) slcan0 0AC#00000000F08D1600
(1660538717.462879) slcan0 0AB#0000000000000000
(1660538717.463126) slcan0 0AA#0400090000000001
(1660538717.463356) slcan0 0A8#2200AE52F8FF0000
(1660538717.463587) slcan0 0A7#0500000007000600
(1660538717.463880) slcan0 0A6#FDFFFCFFFFFF0000
(1660538717.464038) slcan0 0A5#C7050000000096FE
(1660538717.464341) slcan0 0A4#0000000000000000
(1660538717.464578) slcan0 0A3#EB31B31EECB5D71E
(1660538717.471287) slcan0 0AD#0200000000000000
(1660538717.471525) slcan0 0AC#00000100F38D1600
(1660538717.471801) slcan0 0AB#0000000000000000
(1660538717.471895) slcan0 0AA#0400090000000001
(1660538717.472330) slcan0 0A8#2200AE5203000200
(1660538717.472542) slcan0 0A7#0400000007000A00
(1660538717.472685) slcan0 0A6#00000400FFFF0000
(1660538717.472950) slcan0 0A5#C7050000000095FE
(1660538717.473346) slcan0 0A4#0000000000000000
(1660538717.473452) slcan0 0A3#EB31C31EECB5E71E
(1660538717.480390) slcan0 0AD#0100000000000000
(1660538717.480415) slcan0 0AC#00000000F68D1600
(1660538717.480810) slcan0 0AB#0000000000000000
(1660538717.480940) slcan0 0AA#0400090000000001
(1660538717.481213) slcan0 0A8#2200AE52F3FFFFFF
(1660538717.481496) slcan0 0A7#050000000A000300
(1660538717.481766) slcan0 0A6#FAFFF9FFFFFF0000
(1660538717.481928) slcan0 0A5#C9050000000095FE
(1660538717.482164) slcan0 0A4#0000000000000000
(1660538717.482453) slcan0 0A3#EB31C31EECB5E71E
(1660538717.485593) slcan0 0C0#0000000001000000
(1660538717.512979) slcan0 0AD#0100000000000000
(1660538717.513006) slcan0 0AE#1000C01915051920
(1660538717.513183) slcan0 0AC#00000000F98D1600
(1660538717.513351) slcan0 0AA#0400090000000001
(1660538717.513517) slcan0 0A3#EC35C31EEBB1D71E
(1660538717.513651) slcan0 0AB#0000000000000000
(1660538717.513808) slcan0 6B2#00003F093F097F5C
(1660538717.516354) slcan0 0AD#0000000000000000
(1660538717.516560) slcan0 0AC#00000100028E1600
(1660538717.516751) slcan0 0AB#0000000000000000
(1660538717.517020) slcan0 0AA#0400090000000001
(1660538717.517276) slcan0 0A8#2200AE52FEFF0200
(1660538717.517535) slcan0 0A7#0200000007000A00
(1660538717.517698) slcan0 0A6#FDFF0100FCFF0000
(1660538717.517993) slcan0 0A5#C7050000000095FE
(1660538717.518327) slcan0 0A4#0000000000000000
(1660538717.518489) slcan0 0A3#EC35C31EECB5D71E
(1660538717.525464) slcan0 0AD#0200000000000000
(1660538717.525705) slcan0 0AC#00000000058E1600
(1660538717.525875) slcan0 0AB#0000000000000000
(1660538717.526177) slcan0 0AA#0400090000000001
(1660538717.526448) slcan0 0A8#2200AE52FEFF0000
(1660538717.526604) slcan0 0A7#0500000005000100
(1660538717.526904) slcan0 0A6#02000100FFFF0000
(1660538717.527138) slcan0 0A5#C9050000000095FE
(1660538717.527377) slcan0 0A4#0000000000000000
(1660538717.527626) slcan0 0A3#EB35C31EECB5D71E
(1660538717.534499) slcan0 0AD#0000000000000000
(1660538717.534526) slcan0 0C3#000009A0000000
(1660538717.534699) slcan0 0AC#00000100088E1600
(1660538717.534845) slcan0 0AB#0000000000000000
(1660538717.535004) slcan0 0AA#0400090000000001
(1660538717.535333) slcan0 0A8#2200AE52E9FF0300
(1660538717.535450) slcan0 0C4#4D08840532073207
(1660538717.535556) slcan0 0A7#060000000E000600
(1660538717.535774) slcan0 0C0#0000000001000000
(1660538717.535940) slcan0 0A6#F1FFF9FFF9FF0000
(1660538717.536101) slcan0 0A5#C7050000000095FE
(1660538717.536334) slcan0 0A4#0000000000000000
(1660538717.536483) slcan0 0A3#EB31B31EEBB1D71E
(1660538717.543286) slcan0 0AD#0200000000000000
(1660538717.543620) slcan0 0AC#000000000B8E1600
(1660538717.543799) slcan0 0AB#0000000000000000
(1660538717.544005) slcan0 0AA#0400090000000001
(1660538717.544394) slcan0 0A8#2200AE52FBFF0000
(1660538717.544518) slcan0 0A7#0400000007000100
(1660538717.544870) slcan0 0A6#FDFFFFFFFCFF0000
(1660538717.545092) slcan0 0A5#C9050000000095FE
(1660538717.545346) slcan0 0A4#0000000000000000
(1660538717.545503) slcan0 0A3#EB31B31EEBB1D71E
(1660538717.547880) slcan0 6B2#00003F093F097F5C
(1660538717.552494) slcan0 0AD#0000000000000000
(1660538717.552520) slcan0 0AC#000000000E8E1600
(1660538717.552865) slcan0 0AB#0000000000000000
(1660538717.553114) slcan0 0AA#0400090000000001
(1660538717.553339) slcan0 0A8#2200AE5206000100
(1660538717.553568) slcan0 0A7#0400000005000300
(1660538717.553847) slcan0 0A6#0200040001000000
(1660538717.554004) slcan0 0A5#C9050000000096FE
(1660538717.554347) slcan0 0A4#0000000000000000
(1660538717.554470) slcan0 0A3#EB31C31EEBB1D71E
(1660538717.555770) slcan0 6B1#B1001F00131112BF
(1660538717.561394) slcan0 0AD#0200000000000000
(1660538717.561593) slcan0 0AC#00000000118E1600
(1660538717.561876) slcan0 0AB#0000000000000000
(1660538717.562002) slcan0 0AA#0400090000000001
(1660538717.562391) slcan0 0A8#2200AE52FEFF0000
(1660538717.562590) slcan0 0A7#0600000007000A00
(1660538717.562795) slcan0 0A6#FDFF0100FFFF0000
(1660538717.563011) slcan0 0A5#C8050000000096FE
(1660538717.563263) slcan0 0A4#0000000000000000
(1660538717.563381) slcan0 0A3#EB35C31EEBB1D71E
(1660538717.570339) slcan0 0AD#0100000000000000
(1660538717.570533) slcan0 0AC#0000FFFF148E1600
(1660538717.570832) slcan0 0AB#0000000000000000
(1660538717.570980) slcan0 0AA#0400090000000001
(1660538717.571345) slcan0 0A8#2200AE520000FEFF
(1660538717.571573) slcan0 0A7#0400000005000600
(1660538717.571852) slcan0 0A6#0200FFFF04000000
(1660538717.572010) slcan0 0A5#C9050000000096FE
(1660538717.572342) slcan0 0A4#0000000000000000
(1660538717.572539) slcan0 0A3#EB35C31EECB5D71E
(1660538717.579392) slcan0 0AD#0100000000000000
(1660538717.579591) slcan0 0AC#00000000178E1600
(1660538717.579872) slcan0 0AB#0000000000000000
(1660538717.580027) slcan0 0AA#0400090000000001
(1660538717.580368) slcan0 0A8#2200AE52F6FF0000
(1660538717.580598) slcan0 0A7#060000000C000800
(1660538717.580753) slcan0 0A6#FAFFFCFFFCFF0000
(1660538717.580995) slcan0 0A5#C9050000000095FE
(1660538717.581383) slcan0 0A4#0000000000000000
(1660538717.581500) slcan0 0A3#EB31C31EECB5D71E
(1660538717.585555) slcan0 0C0#0000000001000000
(1660538717.588567) slcan0 0AD#FFFF000000000000
(1660538717.612924) slcan0 0AE#1000C01915051920
(1660538717.613038) slcan0 0AB#0000000000000000
(1660538717.613214) slcan0 0AA#0400090000000001
(1660538717.613375) slcan0 0A3#EB31C31EECB5D71E
(1660538717.613544) slcan0 0A9#9600FA00FA014E05
(1660538717.613709) slcan0 0AC#000000001A8E1600
(1660538717.613845) slcan0 6B2#00003F093F097F5C
(1660538717.615285) slcan0 0AD#0000000000000000
(1660538717.615546) slcan0 0AC#00000100238E1600
(1660538717.615946) slcan0 0AB#0000000000000000
(1660538717.616049) slcan0 0AA#0400090000000001
(1660538717.616314) slcan0 0A8#2200AE52F3FF0200
(1660538717.616555) slcan0 0A7#020000000E000100
(1660538717.616714) slcan0 0A6#F7FFFCFFFDFF0000
(1660538717.616978) slcan0 0A5#C8050000000097FE
(1660538717.617278) slcan0 0A4#0000000000000000
(1660538717.617449) slcan0 0A3#EB31C31EECB5D71E
(1660538717.624601) slcan0 0AD#0000000000000000
(1660538717.624627) slcan0 0AC#00000000268E1600
(1660538717.624820) slcan0 0AB#0000000000000000
(1660538717.625027) slcan0 0AA#0400090000000001
(1660538717.625423) slcan0 0A8#2200AE5200000000
(1660538717.625551) slcan0 0A7#070000000A000000
(1660538717.625887) slcan0 0A6#0000000000000000
(1660538717.626026) slcan0 0A5#C9050000000097FE
(1660538717.626519) slcan0 0A4#0000000000000000
(1660538717.626536) slcan0 0A3#EC31C31EECB5D71E
(1660538717.633350) slcan0 0AD#0100000000000000
(1660538717.633580) slcan0 0AC#00000000298E1600
(1660538717.633852) slcan0 0AB#0000000000000000
(1660538717.634057) slcan0 0AA#0400090000000001
(1660538717.634349) slcan0 0A8#2200AE52F7FF0000
(1660538717.634466) slcan0 0C3#000009A0000000
(1660538717.634630) slcan0 0A7#0800000005000600
(1660538717.634795) slcan0 0A6#FAFFFDFFFAFF0000
(1660538717.635044) slcan0 0A5#C8050000000097FE
(1660538717.635339) slcan0 0A4#0000000000000000
(1660538717.635498) slcan0 0C4#4C08850532073207
(1660538717.635655) slcan0 0A3#EC31C31EEBB1D71E
(1660538717.635790) slcan0 0C0#0000000001000000
(1660538717.642293) slcan0 0AD#0200000000000000
(1660538717.642809) slcan0 0AC#000000002C8E1600
(1660538717.642825) slcan0 0AB#0000000000000000
(1660538717.643079) slcan0 0AA#0400090000000001
(1660538717.643350) slcan0 0A8#2200AE5213000100
(1660538717.643533) slcan0 0A7#0500000003000000
(1660538717.643712) slcan0 6B2#00003F093F097F5C
(1660538717.643873) slcan0 0A6#08000A000D000000
(1660538717.644067) slcan0 0A5#C7050000000097FE
(1660538717.644272) slcan0 0A4#0000000000000000
(1660538717.644466) slcan0 0A3#EB35C31EEBB1D71E
(1660538717.651383) slcan0 0AD#0100000000000000
(1660538717.651657) slcan0 0AC#000000002F8E1600
(1660538717.651949) slcan0 0AB#0000000000000000
(1660538717.652048) slcan0 0AA#0400090000000001
(1660538717.652449) slcan0 0A8#2200AE5202000100
(1660538717.652669) slcan0 0A7#0600000005000100
(1660538717.652844) slcan0 0A6#0000020000000000
(1660538717.653045) slcan0 0A5#C8050000000097FE
(1660538717.653490) slcan0 0A4#0000000000000000
(1660538717.653516) slcan0 0A3#EB35C31EEBB1E71E
(1660538717.659910) slcan0 6B1#B1001F00131112BF
(1660538717.660564) slcan0 0AD#0100000000000000
(1660538717.660590) slcan0 0AC#00000000328E1600
(1660538717.660778) slcan0 0AB#0000000000000000
(1660538717.661070) slcan0 0AA#0400090000000001
(1660538717.661349) slcan0 0A8#2200AE52FAFF0000
(1660538717.661518) slcan0 0A7#020000000A000300
(1660538717.661794) slcan0 0A6#FEFFFDFFF7FF0000
(1660538717.662078) slcan0 0A5#C7050000000096FE
(1660538717.662238) slcan0 0A4#0000000000000000
(1660538717.662505) slcan0 0A3#EB35C31EECB5E71E
(1660538717.669471) slcan0 0AD#0000000000000000
(1660538717.669595) slcan0 0AC#0000FFFF358E1600
(1660538717.669789) slcan0 0AB#0000000000000000
(1660538717.670067) slcan0 0AA#0400090000000001
(1660538717.670343) slcan0 0A8#2200AE520500FDFF
(1660538717.670558) slcan0 0A7#0500000005000800
(1660538717.670828) slcan0 0A6#0500000002000000
(1660538717.670965) slcan0 0A5#C8050000000094FE
(1660538717.671329) slcan0 0A4#0000000000000000
(1660538717.671446) slcan0 0A3#EB35C31EECB5D71E
(1660538717.678318) slcan0 0AD#0000000000000000
(1660538717.678623) slcan0 0AC#00000000388E1600
(1660538717.678885) slcan0 0AB#0000000000000000
(1660538717.679007) slcan0 0AA#0400090000000001
(1660538717.679334) slcan0 0A8#2200AE5204000000
(1660538717.679507) slcan0 0A7#0500000005000A00
(1660538717.679795) slcan0 0A6#0200010002000000
(1660538717.680076) slcan0 0A5#C8050000000095FE
(1660538717.680253) slcan0 0A4#0000000000000000
(1660538717.680524) slcan0 0A3#EB31C31EEBB1D71E
(1660538717.685525) slcan0 0C0#0000000001000000
(1660538717.687404) slcan0 0AD#0100000000000000
(1660538717.687541) slcan0 0AE#1000C01915051920
(1660538717.687839) slcan0 0AC#000000003B8E1600
(1660538717.688043) slcan0 0AB#0000000000000000
(1660538717.688301) slcan0 0AA#0400090000000001
(1660538717.712875) slcan0 0A9#9600FA00F9014E05
(1660538717.712913) slcan0 0A8#2200AE5203000000
(1660538717.713069) slcan0 0A7#0500000003000600
(1660538717.713325) slcan0 0A5#C8050000000096FE
(1660538717.713339) slcan0 0A3#EB31C31EEBB1E71E
(1660538717.713562) slcan0 0A6#0200010007000000
(1660538717.713706) slcan0 6B2#00003F093F097F5C
(1660538717.714452) slcan0 0AD#0100000000000000
(1660538717.714626) slcan0 0AC#00000000448E1600
(1660538717.714900) slcan0 0AB#0000000000000000
(1660538717.715019) slcan0 0AA#0400090000000001
(1660538717.715370) slcan0 0A8#2200AE5200000000
(1660538717.715637) slcan0 0A7#0600000007000000
(1660538717.715796) slcan0 0A6#0000010004000000
(1660538717.716071) slcan0 0A5#C6050000000095FE
(1660538717.716326) slcan0 0A4#0000000000000000
(1660538717.716516) slcan0 0A3#EB31C31EEBB1D71E
(1660538717.723360) slcan0 0AD#FFFF000000000000
(1660538717.723612) slcan0 0AC#0000FFFF478E1600
(1660538717.723811) slcan0 0AB#0000000000000000
(1660538717.724079) slcan0 0AA#0400090000000001
(1660538717.724340) slcan0 0A8#2200AE520000FEFF
(1660538717.724535) slcan0 0A7#0700000005000600
(1660538717.724795) slcan0 0A6#0100FFFF04000000
(1660538717.725025) slcan0 0A5#C6050000000095FE
(1660538717.725189) slcan0 0A4#0000000000000000
(1660538717.725458) slcan0 0A3#EB31C31EEBB1D71E
(1660538717.732373) slcan0 0AD#0100000000000000
(1660538717.732552) slcan0 0AC#000000004A8E1600
(1660538717.732721) slcan0 0AB#0000000000000000
(1660538717.733001) slcan0 0AA#0400090000000001
(1660538717.733343) slcan0 0A8#2200AE5202000000
(1660538717.733512) slcan0 0A7#050000000A000300
(1660538717.733806) slcan0 0A6#0100000001000000
(1660538717.733991) slcan0 0A5#C6050000000095FE
(1660538717.734291) slcan0 0A4#0000000000000000
(1660538717.734399) slcan0 0C3#000009A0000000
(1660538717.734584) slcan0 0A3#EB31C31EEBB1D71E
(1660538717.735462) slcan0 0C4#4D08840532073207
(1660538717.735594) slcan0 0C0#0000000001000000
(1660538717.739716) slcan0 6B2#00003F093F097F5C
(1660538717.741327) slcan0 0AD#0100000000000000
(1660538717.741581) slcan0 0AC#000000004D8E1600
(1660538717.741762) slcan0 0AB#0000000000000000
(1660538717.742068) slcan0 0AA#0400090000000001
(1660538717.742322) slcan0 0A8#2200AE5200000000
(1660538717.742472) slcan0 0A7#0400000005000A00
(1660538717.742793) slcan0 0A6#FFFF000001000000
(1660538717.743042) slcan0 0A5#C7050000000095FE
(1660538717.743253) slcan0 0A4#0000000000000000
(1660538717.743505) slcan0 0A3#EB35C31EECB5D71E
(1660538717.750361) slcan0 0AD#0000000000000000
(1660538717.750545) slcan0 0AC#00000000508E1600
(1660538717.750828) slcan0 0AB#0000000000000000
(1660538717.751118) slcan0 0AA#0400090000000001
(1660538717.751334) slcan0 0A8#2200AE5205000100
(1660538717.751547) slcan0 0A7#0400000005000800
(1660538717.751831) slcan0 0A6#0100030003000000
(1660538717.752013) slcan0 0A5#C6050000000098FE
(1660538717.752346) slcan0 0A4#0000000000000000
(1660538717.752458) slcan0 0A3#EC31C31EECB5D71E
(1660538717.759333) slcan0 0AD#0000000000000000
(1660538717.759522) slcan0 0AC#00000000538E1600
(1660538717.759771) slcan0 0AB#0000000000000000
(1660538717.759993) slcan0 0AA#0400090000000001
(1660538717.760325) slcan0 0A8#2200AE52F5FF0000
(1660538717.760457) slcan0 0A7#0200000011000000
(1660538717.760763) slcan0 0A6#F9FFFCFFF9FF0000
(1660538717.761046) slcan0 0A5#C5050000000098FE
(1660538717.761203) slcan0 0A4#0000000000000000
(1660538717.761498) slcan0 0A3#EC31C31EECB5D71E
(1660538717.763767) slcan0 6B1#B1001F00131112BF
(1660538717.768356) slcan0 0AD#0300000000000000
(1660538717.768513) slcan0 0AC#00000000568E1600
(1660538717.768808) slcan0 0AB#0000000000000000
(1660538717.769082) slcan0 0AA#0400090000000001
(1660538717.769242) slcan0 0A8#2200AE5200000000
(1660538717.769503) slcan0 0A7#0500000003000800
(1660538717.769801) slcan0 0A6#FFFF0000FFFF0000
(1660538717.769937) slcan0 0A5#C8050000000099FE
(1660538717.770219) slcan0 0A4#0000000000000000
(1660538717.770524) slcan0 0A3#EB31C31EECB5D71E
(1660538717.777348) slcan0 0AD#0100000000000000
(1660538717.777658) slcan0 0AC#00000000598E1600
(1660538717.777941) slcan0 0AB#0000000000000000
(1660538717.778126) slcan0 0AA#0400090000000001
(1660538717.778347) slcan0 0A8#2200AE52ECFFFFFF
(1660538717.778522) slcan0 0A7#050000000E000100
(1660538717.778757) slcan0 0A6#F6FFF6FFF8FF0000
(1660538717.779053) slcan0 0A5#C6050000000099FE
(1660538717.779327) slcan0 0A4#0000000000000000
(1660538717.779598) slcan0 0A3#EB31C31EEBB1D71E
(1660538717.785514) slcan0 0C0#0000000001000000
(1660538717.786340) slcan0 0AD#0100000000000000
(1660538717.786461) slcan0 0AE#1000C01915051920
(1660538717.786775) slcan0 0AC#000000005C8E1600
(1660538717.787034) slcan0 0AB#0000000000000000
(1660538717.787244) slcan0 0AA#0400090000000001
(1660538717.787531) slcan0 0A9#9600FA00FA014F05
(1660538717.787708) slcan0 6B2#00003F093F097F5C
(1660538717.787874) slcan0 0A8#2200AE520E000000
(1660538717.788020) slcan0 0A7#0700000007000600
(1660538717.788224) slcan0 0A6#070006000A000000
(1660538717.813093) slcan0 0A4#0000000000000000
(1660538717.813115) slcan0 0A5#C605000000009AFE
(1660538717.813212) slcan0 0A3#EC31C31EECB5D71E
(1660538717.813365) slcan0 0A2#F0D8F0D80B010000
(1660538717.813502) slcan0 0A1#0A01FB07F007F0D8
(1660538717.813635) slcan0 0A3#EB35C31EECB5E71E
(1660538717.813759) slcan0 0AC#00000000658E1600
(1660538717.813934) slcan0 0AD#0100000000000000
(1660538717.814084) slcan0 0AB#0000000000000000
(1660538717.814278) slcan0 0AA#0400090000000001
(1660538717.814441) slcan0 0A8#2200AE5200000000
(1660538717.814599) slcan0 0A7#050000000C000A00
(1660538717.814793) slcan0 0A6#0000010001000000
(1660538717.814974) slcan0 0A5#C6050000000099FE
(1660538717.815331) slcan0 0A4#0000000000000000
(1660538717.815507) slcan0 0A3#EB35C31EECB5D71E
(1660538717.822324) slcan0 0AD#0200000000000000
(1660538717.822558) slcan0 0AC#0000FFFF688E1600
(1660538717.822852) slcan0 0AB#0000000000000000
(1660538717.822957) slcan0 0AA#0400090000000001
(1660538717.823350) slcan0 0A8#2200AE520900FDFF
(1660538717.823540) slcan0 0A7#0500000001000000
(1660538717.823714) slcan0 0A6#0800010004000000
(1660538717.824029) slcan0 0A5#C8050000000099FE
(1660538717.824345) slcan0 0A4#0000000000000000
(1660538717.824477) slcan0 0A3#EB31B31EECB5D71E
(1660538717.831343) slcan0 0AD#0200000000000000
(1660538717.831498) slcan0 0AC#000000006B8E1600
(1660538717.831848) slcan0 0AB#0000000000000000
(1660538717.832045) slcan0 0AA#0400090000000001
(1660538717.832156) slcan0 0A8#2200AE52F8FFFFFF
(1660538717.832419) slcan0 0A7#050000000A000300
(1660538717.832722) slcan0 0A6#FDFFFCFFFBFF0000
(1660538717.832942) slcan0 0A5#C9050000000099FE
(1660538717.833196) slcan0 0A4#0000000000000000
(1660538717.833541) slcan0 0A3#EB31B31EECB5D71E
(1660538717.834563) slcan0 0C3#000009A0000000
(1660538717.835503) slcan0 0C4#4D08840532073207
(1660538717.835624) slcan0 0C0#0000000001000000
(1660538717.835870) slcan0 6B2#00003F093F097F5C
(1660538717.840391) slcan0 0AD#0200000000000000
(1660538717.840626) slcan0 0AC#000000006E8E1600
(1660538717.840878) slcan0 0AB#0000000000000000
(1660538717.841057) slcan0 0AA#0400090000000001
(1660538717.841387) slcan0 0A8#2200AE52F8FFFFFF
(1660538717.841659) slcan0 0A7#0100000003000300
(1660538717.841846) slcan0 0A6#FDFFFCFF01000000
(1660538717.842106) slcan0 0A5#C805000000009BFE
(1660538717.842330) slcan0 0A4#0000000000000000
(1660538717.842494) slcan0 0A3#EB31C31EEBB5E71E
(1660538717.849338) slcan0 0AD#0200000000000000
(1660538717.849459) slcan0 0AC#0000FFFF718E1600
(1660538717.849737) slcan0 0AB#0000000000000000
(1660538717.850053) slcan0 0AA#0400090000000001
(1660538717.850179) slcan0 0A8#2200AE52FCFFFEFF
(1660538717.850545) slcan0 0A7#0400000005000300
(1660538717.850794) slcan0 0A6#0000FCFFF9FF0000
(1660538717.850976) slcan0 0A5#C705000000009BFE
(1660538717.851197) slcan0 0A4#0000000000000000
(1660538717.851544) slcan0 0A3#EB31C31EEBB5E71E
(1660538717.858371) slcan0 0AD#0300000000000000
(1660538717.858581) slcan0 0AC#00000000748E1600
(1660538717.858842) slcan0 0AB#0000000000000000
(1660538717.858959) slcan0 0AA#0400090000000001
(1660538717.859316) slcan0 0A8#2200AE52F6FF0000
(1660538717.859571) slcan0 0A7#050000000E000000
(1660538717.859736) slcan0 0A6#FBFFFCFFF9FF0000
(1660538717.860011) slcan0 0A5#C505000000009BFE
(1660538717.860276) slcan0 0A4#0000000000000000
(1660538717.860409) slcan0 0A3#EC31C31EEBB1D71E
(1660538717.867345) slcan0 0AD#0200000000000000
(1660538717.867599) slcan0 0AC#00000000778E1600
(1660538717.867745) slcan0 6B1#B1001F00131112BF
(1660538717.867894) slcan0 0AB#0000000000000000
(1660538717.868054) slcan0 0AA#0400090000000001
(1660538717.868339) slcan0 0A8#2200AE52F9FFFFFF
(1660538717.868401) slcan0 0A7#070000000C000100
(1660538717.868651) slcan0 0A6#FDFFFCFFF6FF0000
(1660538717.868936) slcan0 0A5#C805000000009AFE
(1660538717.869269) slcan0 0A4#0000000000000000
(1660538717.869474) slcan0 0A3#EC31C31EEBB1D71E
(1660538717.876436) slcan0 0AD#0100000000000000
(1660538717.876491) slcan0 0AC#000000007A8E1600
(1660538717.876876) slcan0 0AB#0000000000000000
(1660538717.876995) slcan0 0AA#0400090000000001
(1660538717.877324) slcan0 0A8#2200AE5200000000
(1660538717.877570) slcan0 0A7#0400000007000600
(1660538717.877715) slcan0 0A6#0000FFFFFCFF0000
(1660538717.878039) slcan0 0A5#C6050000000099FE
(1660538717.878334) slcan0 0A4#0000000000000000
(1660538717.878352) slcan0 0A3#EC31D31EEBB1E71E
(1660538717.883855) slcan0 6B2#00003F093F097F5C
(1660538717.885223) slcan0 0AD#0100000000000000
(1660538717.885450) slcan0 0C0#0000000001000000
(1660538717.885614) slcan0 0AE#1000C01915051920
(1660538717.885761) slcan0 0AC#000000007D8E1600
(1660538717.886005) slcan0 0AB#0000000000000000
(1660538717.886297) slcan0 0AA#0400090000000001
(1660538717.886379) slcan0 0A9#9600FA00FA015105
(1660538717.886662) slcan0 0A8#2200AE52FAFFFFFF
(1660538717.886846) slcan0 0A7#060000000E000600
(1660538717.887168) slcan0 0A6#FEFFFDFF01000000
(1660538717.887460) slcan0 0A5#C6050000000099FE
(1660538717.887647) slcan0 0A4#0000000000000000
(1660538717.887920) slcan0 0A3#EC35D31EEBB1E71E
(1660538717.888113) slcan0 0A2#F0D8F0D80F010000
(1660538717.888374) slcan0 0A1#0A01FB07F007F0D8
(1660538717.912834) slcan0 0AD#0000000000000000
(1660538717.912984) slcan0 0AC#00000100808E1600
(1660538717.913141) slcan0 0AB#0000000000000000
(1660538717.913288) slcan0 0AA#0400090000000001
(1660538717.913449) slcan0 0A0#DC00DF00DC000A01
(1660538717.913603) slcan0 0A8#2200AE52FEFF0000
(1660538717.913687) slcan0 0A7#0600000007000300
(1660538717.913845) slcan0 0AA#0400090000000001
(1660538717.914005) slcan0 0A6#FEFF0000FFFF0000
(1660538717.914269) slcan0 0A5#C7050000000098FE
(1660538717.914375) slcan0 0A4#0000000000000000
(1660538717.914517) slcan0 0A3#EB31C31EECB5D71E
(1660538717.921238) slcan0 0AD#FFFF000000000000
(1660538717.921482) slcan0 0AC#00000000898E1600
(1660538717.921768) slcan0 0AB#0000000000000000
(1660538717.922048) slcan0 0AA#0400090000000001
(1660538717.922196) slcan0 0A8#2200AE520B000000
(1660538717.922532) slcan0 0A7#060000000E000800
(1660538717.922827) slcan0 0A6#0600050007000000
(1660538717.922939) slcan0 0A5#C7050000000099FE
(1660538717.923261) slcan0 0A4#0000000000000000
(1660538717.923442) slcan0 0A3#EB31C31EECB5D71E
(1660538717.930301) slcan0 0AD#0400000000000000
(1660538717.930514) slcan0 0AC#000000008C8E1600
(1660538717.930682) slcan0 0AB#0000000000000000
(1660538717.930973) slcan0 0AA#0400090000000001
(1660538717.931292) slcan0 0A8#2200AE5214000100
(1660538717.931422) slcan0 0A7#0500000003000300
(1660538717.931753) slcan0 0A6#08000A0010000000
(1660538717.931899) slcan0 6B2#00003F093F097F5C
(1660538717.931972) slcan0 0A5#CA050000000098FE
(1660538717.932116) slcan0 0A4#0000000000000000
(1660538717.932362) slcan0 0A3#EB31C31EECB5D71E
(1660538717.934502) slcan0 0C3#000009A0000000
(1660538717.935451) slcan0 0C4#4B08840532073207
(1660538717.935603) slcan0 0C0#0000000001000000
(1660538717.939309) slcan0 0AD#0200000000000000
(1660538717.939417) slcan0 0AC#000000008F8E1600
(1660538717.939772) slcan0 0AB#0000000000000000
(1660538717.940009) slcan0 0AA#0400090000000001
(1660538717.940179) slcan0 0A8#2200AE5208000100
(1660538717.940476) slcan0 0A7#0600000005000600
(1660538717.940739) slcan0 0A6#02000500FFFF0000
(1660538717.940964) slcan0 0A5#C8050000000097FE
(1660538717.941246) slcan0 0A4#0000000000000000
(1660538717.941352) slcan0 0A3#EB31C31EECB5E71E
(1660538717.948411) slcan0 0AD#0000000000000000
(1660538717.948550) slcan0 0AC#00000000928E1600
(1660538717.948698) slcan0 0AB#0000000000000000
(1660538717.948984) slcan0 0AA#0400090000000001
(1660538717.949296) slcan0 0A8#2200AE5202000000
(1660538717.949412) slcan0 0A7#060000000A000800
(1660538717.949685) slcan0 0A6#0000020004000000
(1660538717.950033) slcan0 0A5#C8050000000098FE
(1660538717.950224) slcan0 0A4#0000000000000000
(1660538717.950437) slcan0 0A3#EB31C31EECB5E71E
(1660538717.957383) slcan0 0AD#0200000000000000
(1660538717.957511) slcan0 0AC#00000000958E1600
(1660538717.957791) slcan0 0AB#0000000000000000
(1660538717.958044) slcan0 0AA#0400090000000001
(1660538717.958219) slcan0 0A8#2200AE52F8FF0000
(1660538717.958509) slcan0 0A7#060000000A000100
(1660538717.958776) slcan0 0A6#FBFFFDFFFCFF0000
(1660538717.958956) slcan0 0A5#CA050000000099FE
(1660538717.959245) slcan0 0A4#0000000000000000
(1660538717.959363) slcan0 0A3#EB31C31EECB5E71E
(1660538717.966329) slcan0 0AD#0200000000000000
(1660538717.966589) slcan0 0AC#00000100988E1600
(1660538717.966783) slcan0 0AB#0000000000000000
(1660538717.967057) slcan0 0AA#0400090000000001
(1660538717.967273) slcan0 0A8#2200AE5205000200
(1660538717.967466) slcan0 0A7#0500000007000100
(1660538717.967749) slcan0 0A6#00000500FCFF0000
(1660538717.968049) slcan0 0A5#C805000000009AFE
(1660538717.968298) slcan0 0A4#0000000000000000
(1660538717.968486) slcan0 0A3#EB31C31EEBB5D71E
(1660538717.971790) slcan0 6B1#B1001F00131112BF
(1660538717.975327) slcan0 0AD#0300000000000000
(1660538717.975493) slcan0 0AC#000000009B8E1600
(1660538717.975783) slcan0 0AB#0000000000000000
(1660538717.976060) slcan0 0AA#0400090000000001
(1660538717.976113) slcan0 0A8#2200AE5202000000
(1660538717.976467) slcan0 0A7#0700000003000600
(1660538717.976783) slcan0 0A6#00000200FCFF0000
(1660538717.976951) slcan0 0A5#C605000000009AFE
(1660538717.977248) slcan0 0A4#0000000000000000
(1660538717.977393) slcan0 0A3#EB31C31EEBB5D71E
(1660538717.980073) slcan0 6B2#00003F093F097F5C
(1660538717.984439) slcan0 0AD#0200000000000000
(1660538717.984502) slcan0 0AE#1000C01915051920
(1660538717.984848) slcan0 0AC#000000009E8E1600
(1660538717.985001) slcan0 0AB#0000000000000000
(1660538717.985348) slcan0 0AA#0400090000000001
(1660538717.985533) slcan0 0C0#0000000001000000
(1660538717.985681) slcan0 0A9#9600FA00F9014F05
(1660538717.985813) slcan0 0A8#2200AE5205000000
(1660538717.985967) slcan0 0A7#0500000007000600
(1660538717.986079) slcan0 0A6#0200010001000000
(1660538717.986345) slcan0 0A5#C7050000000099FE
(1660538717.986615) slcan0 0A4#0000000000000000
(1660538717.986908) slcan0 0A3#EB31C31EEBB1D71E
(1660538717.987163) slcan0 0A2#F0D8F0D80E010000
(1660538717.987274) slcan0 0A1#0A01FB07F007F0D8
(1660538717.987596) slcan0 0A0#DC00DE00DC000A01
(1660538718.013091) slcan0 0AD#0000000000000000
(1660538718.013117) slcan0 0AC#0000FFFFA18E1600
(1660538718.013153) slcan0 0AB#0000000000000000
(1660538718.013338) slcan0 0A4#0000000000000000
(1660538718.013473) slcan0 0A8#2200AE52F7FFFEFF
(1660538718.013638) slcan0 0A5#C705000000009AFE
(1660538718.013781) slcan0 0A3#EC31C31EECB5E71E
(1660538718.013939) slcan0 0AA#0400090000000001
(1660538718.020445) slcan0 0AD#0000000000000000
(1660538718.020472) slcan0 0AC#00000000AA8E1600
(1660538718.020788) slcan0 0AB#0000000000000000
(1660538718.021070) slcan0 0AA#0400090000000001
(1660538718.021243) slcan0 0A8#2200AE5204000000
(1660538718.021513) slcan0 0A7#020000000C000A00
(1660538718.021782) slcan0 0A6#02000100FFFF0000
(1660538718.021964) slcan0 0A5#C605000000009BFE
(1660538718.022245) slcan0 0A4#0000000000000000
(1660538718.022486) slcan0 0A3#EB31C31EECB5D71E
(1660538718.028000) slcan0 6B2#00003F093F097F5C
(1660538718.029376) slcan0 0AD#FFFF000000000000
(1660538718.029723) slcan0 0AC#00000200AD8E1600
(1660538718.029917) slcan0 0AB#0000000000000000
(1660538718.030183) slcan0 0AA#0400090000000001
(1660538718.030463) slcan0 0A8#2200AE5200000000
(1660538718.030636) slcan0 0A7#0400000007000000
(1660538718.030908) slcan0 0A6#0000000002000000
(1660538718.031169) slcan0 0A5#C705000000009AFE
(1660538718.031343) slcan0 0A4#0000000000000000
(1660538718.031635) slcan0 0A3#EB31C31EECB5D71E
(1660538718.034524) slcan0 0C3#000009A0000000
(1660538718.035493) slcan0 0C4#4D08840532073207
(1660538718.035665) slcan0 0C0#0000000001000000
(1660538718.038549) slcan0 0AD#0100000000000000
(1660538718.038575) slcan0 0AC#0000FFFFB08E1600
(1660538718.038883) slcan0 0AB#0000000000000000
(1660538718.039126) slcan0 0AA#0400090000000001
(1660538718.039348) slcan0 0A8#2200AE520500FDFF
(1660538718.039585) slcan0 0A7#040000000C000600
(1660538718.039877) slcan0 0A6#0500000002000000
(1660538718.040045) slcan0 0A5#C705000000009AFE
(1660538718.040355) slcan0 0A4#0000000000000000
(1660538718.040477) slcan0 0A3#EB31C31EECB5D71E
(1660538718.047350) slcan0 0AD#0000000000000000
(1660538718.047598) slcan0 0AC#0000FFFFB38E1600
(1660538718.047784) slcan0 0AB#0000000000000000
(1660538718.048037) slcan0 0AA#0400090000000001
(1660538718.048348) slcan0 0A8#2200AE52F4FF0200
(1660538718.048501) slcan0 0A7#0600000013000800
(1660538718.048770) slcan0 0A6#F8FFFDFFFEFF0000
(1660538718.048996) slcan0 0A5#C705000000009AFE
(1660538718.049240) slcan0 0A4#0000000000000000
(1660538718.049466) slcan0 0A3#EB31C31EECB5D71E
(1660538718.056515) slcan0 0AD#0100000000000000
(1660538718.056556) slcan0 0AC#0000FFFFB68E1600
(1660538718.056853) slcan0 0AB#0000000000000000
(1660538718.057101) slcan0 0AA#0400090000000001
(1660538718.057325) slcan0 0A8#2200AE52F5FF0000
(1660538718.057543) slcan0 0A7#040000000A000600
(1660538718.057857) slcan0 0A6#FBFFFAFFFEFF0000
(1660538718.057921) slcan0 0A5#C805000000009AFE
(1660538718.058505) slcan0 0A4#0000000000000000
(1660538718.058527) slcan0 0A3#EB35C31EECB5D71E
(1660538718.065305) slcan0 0AD#0200000000000000
(1660538718.065534) slcan0 0AC#0000FFFFB98E1600
(1660538718.065814) slcan0 0AB#0000000000000000
(1660538718.065991) slcan0 0AA#0400090000000001
(1660538718.066253) slcan0 0A8#2200AE520800FEFF
(1660538718.066562) slcan0 0A7#0500000003000300
(1660538718.066718) slcan0 0A6#0500020000000000
(1660538718.067104) slcan0 0A5#C7050000000098FE
(1660538718.067231) slcan0 0A4#0000000000000000
(1660538718.067501) slcan0 0A3#EB35C31EEBB1D71E
(1660538718.074318) slcan0 0AD#0200000000000000
(1660538718.074579) slcan0 0AC#00000000BC8E1600
(1660538718.074857) slcan0 0AB#0000000000000000
(1660538718.075102) slcan0 0AA#0400090000000001
(1660538718.075352) slcan0 0A8#2200AE521400FFFF
(1660538718.075580) slcan0 0A7#0500000007000800
(1660538718.075754) slcan0 6B1#B1001F00131112BF
(1660538718.075806) slcan0 0A6#020002000B000000
(1660538718.076018) slcan0 0A5#C8050000000098FE
(1660538718.076295) slcan0 0A4#0000000000000000
(1660538718.076561) slcan0 0A3#EB31C31EECB5D71E
(1660538718.083277) slcan0 0AD#FFFF000000000000
(1660538718.083578) slcan0 0AE#1000C01915051920
(1660538718.083891) slcan0 0AC#00000000BF8E1600
(1660538718.084061) slcan0 0AB#0000000000000000
(1660538718.084345) slcan0 0AA#0400090000000001
(1660538718.084615) slcan0 0A9#9600FA00FA014F05
(1660538718.084784) slcan0 0A8#2200AE520B000000
(1660538718.085081) slcan0 0A7#0200000003000100
(1660538718.085359) slcan0 0A6#FBFFFDFF00000000
(1660538718.085519) slcan0 0C0#0000000001000000
(1660538718.085656) slcan0 0A5#C8050000000097FE
(1660538718.085823) slcan0 0A4#0000000000000000
(1660538718.085987) slcan0 0A3#EB31C31EECB5D71E
(1660538718.086233) slcan0 0A2#F0D8F0D80C010000
(1660538718.086376) slcan0 0A1#0A01FB07F007F0D8
(1660538718.086697) slcan0 0A0#DC00DE00DD000A01
(1660538718.112829) slcan0 0AD#FFFF000000000000
(1660538718.112962) slcan0 0AC#00000000C28E1600
(1660538718.113175) slcan0 0AB#0000000000000000
(1660538718.113348) slcan0 0A8#2200AE52F5FFFFFF
(1660538718.113481) slcan0 0A3#EB31C31EEBB1D71E
(1660538718.113648) slcan0 0AA#0400090000000001
(1660538718.119582) slcan0 0AD#0000000000000000
(1660538718.119608) slcan0 0AC#00000000CB8E1600
(1660538718.119869) slcan0 0AB#0000000000000000
(1660538718.120128) slcan0 0AA#0400090000000001
(1660538718.120353) slcan0 0A8#2200AE5205000000
(1660538718.120597) slcan0 0A7#0600000003000300
(1660538718.120853) slcan0 0A6#0200010002000000
(1660538718.121023) slcan0 0A5#CA050000000098FE
(1660538718.121334) slcan0 0A4#0000000000000000
(1660538718.121460) slcan0 0A3#EB31C31EEBB1D71E
(1660538718.123768) slcan0 6B2#00003F093F097F5C
(1660538718.128560) slcan0 0AD#0100000000000000
(1660538718.128587) slcan0 0AC#0000FFFFCE8E1600
(1660538718.128900) slcan0 0AB#0000000000000000
(1660538718.129069) slcan0 0AA#0400090000000001
(1660538718.129347) slcan0 0A8#2200AE520100FEFF
(1660538718.129602) slcan0 0A7#0200000001000100
(1660538718.129781) slcan0 0A6#0200FFFF04000000
(1660538718.130080) slcan0 0A5#C8050000000099FE
(1660538718.130367) slcan0 0A4#0000000000000000
(1660538718.130592) slcan0 0A3#EB31C31EECB1D71E
(1660538718.134636) slcan0 0C3#000009A0000000
(1660538718.135644) slcan0 0C4#4D08840532073207
(1660538718.135670) slcan0 0C0#0000000001000000
(1660538718.137600) slcan0 0AD#0100000000000000
(1660538718.137627) slcan0 0AC#00000000D18E1600
(1660538718.137850) slcan0 0AB#0000000000000000
(1660538718.138118) slcan0 0AA#0400090000000001
(1660538718.138318) slcan0 0A8#2200AE52F4FFFFFF
(1660538718.138584) slcan0 0A7#050000000A000800
(1660538718.138859) slcan0 0A6#FBFFF9FFFDFF0000
(1660538718.138975) slcan0 0A5#C8050000000099FE
(1660538718.139340) slcan0 0A4#0000000000000000
(1660538718.139451) slcan0 0A3#EB31C31EECB1D71E
(1660538718.146522) slcan0 0AD#0500000000000000
(1660538718.146637) slcan0 0AC#00000100D48E1600
(1660538718.146874) slcan0 0AB#0000000000000000
(1660538718.146974) slcan0 0AA#0400090000000001
(1660538718.147320) slcan0 0A8#2200AE5204000200
(1660538718.147518) slcan0 0A7#0600000003000300
(1660538718.147733) slcan0 0A6#0000040005000000
(1660538718.147987) slcan0 0A5#C6050000000098FE
(1660538718.148317) slcan0 0A4#0000000000000000
(1660538718.148428) slcan0 0A3#EB31C31EEBB1D71E
(1660538718.155470) slcan0 0AD#0200000000000000
(1660538718.155589) slcan0 0AC#00000000D78E1600
(1660538718.155864) slcan0 0AB#0000000000000000
(1660538718.156162) slcan0 0AA#0400090000000001
(1660538718.156358) slcan0 0A8#2200AE5201000000
(1660538718.156649) slcan0 0A7#060000000A000100
(1660538718.156925) slcan0 0A6#0000010001000000
(1660538718.157101) slcan0 0A5#C6050000000098FE
(1660538718.157382) slcan0 0A4#0000000000000000
(1660538718.157656) slcan0 0A3#EB31C31EEBB5D71E
(1660538718.164418) slcan0 0AD#0200000000000000
(1660538718.164594) slcan0 0AC#00000000DA8E1600
(1660538718.164843) slcan0 0AB#0000000000000000
(1660538718.165017) slcan0 0AA#0400090000000001
(1660538718.165258) slcan0 0A8#2200AE52FEFFFFFF
(1660538718.165552) slcan0 0A7#020000000A000300
(1660538718.165730) slcan0 0A6#0000FFFF01000000
(1660538718.166008) slcan0 0A5#C6050000000098FE
(1660538718.166280) slcan0 0A4#0000000000000000
(1660538718.166386) slcan0 0A3#EC31C31EEBB5D71E
(1660538718.171936) slcan0 6B2#00003F093F097F5C
(1660538718.173374) slcan0 0AD#0300000000000000
(1660538718.173594) slcan0 0AC#00000000DD8E1600
(1660538718.173801) slcan0 0AB#0000000000000000
(1660538718.174090) slcan0 0AA#0400090000000001
(1660538718.174350) slcan0 0A8#2200AE52F0FF0000
(1660538718.174473) slcan0 0A7#050000000C000600
(1660538718.174990) slcan0 0A6#F8FFF9FFFAFF0000
(1660538718.175008) slcan0 0A5#C3050000000099FE
(1660538718.175320) slcan0 0A4#0000000000000000
(1660538718.175453) slcan0 0A3#EC31C31EECB5D71E
(1660538718.179762) slcan0 6B1#B1001F00131112BF
(1660538718.182451) slcan0 0AD#0100000000000000
(1660538718.182479) slcan0 0AE#1000C01915051920
(1660538718.182806) slcan0 0AC#0000FDFFE08E1600
(1660538718.183058) slcan0 0AB#0000000000000000
(1660538718.183259) slcan0 0AA#0400090000000001
(1660538718.183531) slcan0 0A9#9600FA00FA015005
(1660538718.183778) slcan0 0A8#2200AE520500F8FF
(1660538718.184025) slcan0 0A7#0500000003000100
(1660538718.184355) slcan0 0A6#0800FCFF05000000
(1660538718.184468) slcan0 0A5#C605000000009AFE
(1660538718.184760) slcan0 0A4#0000000000000000
(1660538718.185005) slcan0 0A3#EC35B31EECB5D71E
(1660538718.185184) slcan0 0A2#F0D8F0D80B010000
(1660538718.185457) slcan0 0C0#0000000001000000
(1660538718.185606) slcan0 0A1#0B01FB07F007F0D8
(1660538718.185774) slcan0 0A0#DC00DF00DD000B01
(1660538718.213071) slcan0 0AD#0100000000000000
(1660538718.213098) slcan0 0AC#00000000E38E1600
(1660538718.213199) slcan0 0AB#0000000000000000
(1660538718.213337) slcan0 0A8#2200AE52F1FF0000
(1660538718.213466) slcan0 0A3#EB35C31EEBB1D71E
(1660538718.213711) slcan0 0AA#0400090000000001
(1660538718.218499) slcan0 0AD#0000000000000000
(1660538718.218635) slcan0 0AC#00000000EC8E1600
(1660538718.218928) slcan0 0AB#0000000000000000
(1660538718.219127) slcan0 0AA#0400090000000001
(1660538718.219351) slcan0 0A8#2200AE5210000000
(1660538718.219640) slcan0 0A7#0700000003000600
(1660538718.219807) slcan0 6B2#00003F093F097F5C
(1660538718.219973) slcan0 0A6#0800070008000000
(1660538718.220123) slcan0 0A5#C4050000000098FE
(1660538718.220342) slcan0 0A4#0000000000000000
(1660538718.220583) slcan0 0A3#EC31C31EECB5D71E
(1660538718.227343) slcan0 0AD#0200000000000000
(1660538718.227585) slcan0 0AC#00000000EF8E1600
(1660538718.227849) slcan0 0AB#0000000000000000
(1660538718.228105) slcan0 0AA#0400090000000001
(1660538718.228335) slcan0 0A8#2200AE5205000000
(1660538718.228580) slcan0 0A7#0400000005000100
(1660538718.228880) slcan0 0A6#0200020002000000
(1660538718.229032) slcan0 0A5#C4050000000098FE
(1660538718.229348) slcan0 0A4#0000000000000000
(1660538718.229467) slcan0 0A3#EB31B31EECB5D71E
(1660538718.234506) slcan0 0C3#000009A0000000
(1660538718.235490) slcan0 0C4#4D08840532073207
(1660538718.235688) slcan0 0C0#0000000001000000
(1660538718.236365) slcan0 0AD#0100000000000000
(1660538718.236598) slcan0 0AC#00000000F28E1600
(1660538718.236802) slcan0 0AB#0000000000000000
(1660538718.237073) slcan0 0AA#0400090000000001
(1660538718.237332) slcan0 0A8#2200AE52FAFFFFFF
(1660538718.237467) slcan0 0A7#0400000005000800
(1660538718.237798) slcan0 0A6#FEFFFCFF02000000
(1660538718.238056) slcan0 0A5#C5050000000097FE
(1660538718.238310) slcan0 0A4#0000000000000000
(1660538718.238459) slcan0 0A3#EB31B31EECB5D71E
(1660538718.245340) slcan0 0AD#FFFF000000000000
(1660538718.245529) slcan0 0AC#00000000F58E1600
(1660538718.245809) slcan0 0AB#0000000000000000
(1660538718.246085) slcan0 0AA#0400090000000001
(1660538718.246290) slcan0 0A8#2200AE5208000000
(1660538718.246463) slcan0 0A7#0600000001000A00
(1660538718.246810) slcan0 0A6#0200040000000000
(1660538718.246938) slcan0 0A5#C5050000000097FE
(1660538718.247283) slcan0 0A4#0000000000000000
(1660538718.247450) slcan0 0A3#EB31C31EECB5E71E
(1660538718.254297) slcan0 0AD#0200000000000000
(1660538718.254561) slcan0 0AC#0000FFFFF88E1600
(1660538718.254748) slcan0 0AB#0000000000000000
(1660538718.255042) slcan0 0AA#0400090000000001
(1660538718.255299) slcan0 0A8#2200AE52FDFFFEFF
(1660538718.255480) slcan0 0A7#050000000A000100
(1660538718.255769) slcan0 0A6#0000FCFFFDFF0000
(1660538718.256047) slcan0 0A5#C6050000000097FE
(1660538718.256298) slcan0 0A4#0000000000000000
(1660538718.256475) slcan0 0A3#EB35C31EECB5D71E
(1660538718.263381) slcan0 0AD#0000000000000000
(1660538718.263440) slcan0 0AC#00000100FB8E1600
(1660538718.263921) slcan0 0AB#0000000000000000
(1660538718.264085) slcan0 0AA#0400090000000001
(1660538718.264308) slcan0 0A8#2200AE5204000200
(1660538718.264478) slcan0 0A7#0600000007000800
(1660538718.264969) slcan0 0A6#00000400FAFF0000
(1660538718.264987) slcan0 0A5#C6050000000096FE
(1660538718.265283) slcan0 0A4#0000000000000000
(1660538718.265354) slcan0 0A3#EB31C31EECB5D71E
(1660538718.267826) slcan0 6B2#00003F093F097F5C
(1660538718.272485) slcan0 0AD#0100000000000000
(1660538718.272546) slcan0 0AC#00000000FE8E1600
(1660538718.273054) slcan0 0AB#0000000000000000
(1660538718.273071) slcan0 0AA#0400090000000001
(1660538718.273339) slcan0 0A8#2200AE52FDFF0000
(1660538718.273524) slcan0 0A7#040000000C000D00
(1660538718.273782) slcan0 0A6#FEFFFFFF02000000
(1660538718.274061) slcan0 0A5#C4050000000096FE
(1660538718.274330) slcan0 0A4#0000000000000000
(1660538718.274490) slcan0 0A3#EB31C31EEBB1D71E
(1660538718.281599) slcan0 0AD#0000000000000000
(1660538718.281626) slcan0 0AE#1000C01915051920
(1660538718.281904) slcan0 0AC#00000000018F1600
(1660538718.282143) slcan0 0AB#0000000000000000
(1660538718.282299) slcan0 0AA#0400090000000001
(1660538718.282562) slcan0 0A9#9600FA00F9014F05
(1660538718.282865) slcan0 0A8#2200AE52FDFF0000
(1660538718.282992) slcan0 0A7#0200000007000300
(1660538718.283428) slcan0 0A6#FEFFFFFF00000000
(1660538718.283512) slcan0 0A5#C6050000000096FE
(1660538718.284039) slcan0 0A4#0000000000000000
(1660538718.284065) slcan0 6B1#B1001F00131112BF
(1660538718.284100) slcan0 0A3#EB31C31EEBB1D71E
(1660538718.284318) slcan0 0A2#F0D8F0D80B010000
(1660538718.284538) slcan0 0A1#0B01FB07F007F0D8
(1660538718.284732) slcan0 0A0#DC00DE00DD000B01
(1660538718.285648) slcan0 0C0#0000000001000000
(1660538718.312879) slcan0 0AD#0100000000000000
(1660538718.312949) slcan0 0AC#0000FFFF048F1600
(1660538718.313181) slcan0 0AB#0000000000000000
(1660538718.313338) slcan0 0A8#2200AE520500FCFF
(1660538718.313415) slcan0 0A3#EC31C31EECB5E71E
(1660538718.313570) slcan0 0AA#0400090000000001
(1660538718.315678) slcan0 6B2#00003F093F097F5C
(1660538718.317249) slcan0 0AD#0100000000000000
(1660538718.317527) slcan0 0AC#000000000D8F1600
(1660538718.317892) slcan0 0AB#0000000000000000
(1660538718.318057) slcan0 0AA#0400090000000001
(1660538718.318327) slcan0 0A8#2200AE5208000000
(1660538718.318566) slcan0 0A7#0600000003000600
(1660538718.318789) slcan0 0A6#0200040005000000
(1660538718.319077) slcan0 0A5#C6050000000097FE
(1660538718.319343) slcan0 0A4#0000000000000000
(1660538718.319487) slcan0 0A3#EC31C31EECB5E71E
(1660538718.326556) slcan0 0AD#0100000000000000
(1660538718.326583) slcan0 0AC#0000FFFF108F1600
(1660538718.326805) slcan0 0AB#0000000000000000
(1660538718.327070) slcan0 0AA#0400090000000001
(1660538718.327333) slcan0 0A8#2200AE520700FEFF
(1660538718.327539) slcan0 0A7#0500000003000000
(1660538718.327831) slcan0 0A6#0500010001000000
(1660538718.327992) slcan0 0A5#C8050000000097FE
(1660538718.328325) slcan0 0A4#0000000000000000
(1660538718.328544) slcan0 0A3#EB31C31EECB5D71E
(1660538718.334582) slcan0 0C3#000009A0000000
(1660538718.335334) slcan0 0AD#0100000000000000
(1660538718.335482) slcan0 0C4#4D08840532073207
(1660538718.335625) slcan0 0AC#00000000138F1600
(1660538718.335793) slcan0 0C0#0000000001000000
(1660538718.335935) slcan0 0AB#0000000000000000
(1660538718.336109) slcan0 0AA#0400090000000001
(1660538718.336331) slcan0 0A8#2200AE52F7FF0000
(1660538718.336517) slcan0 0A7#040000000C000600
(1660538718.336769) slcan0 0A6#FBFFFCFFFDFF0000
(1660538718.337000) slcan0 0A5#C6050000000098FE
(1660538718.337243) slcan0 0A4#0000000000000000
(1660538718.337400) slcan0 0A3#EB31C31EECB5E71E
(1660538718.344664) slcan0 0AD#0200000000000000
(1660538718.344691) slcan0 0AC#00000000168F1600
(1660538718.344927) slcan0 0AB#0000000000000000
(1660538718.345185) slcan0 0AA#0400090000000001
(1660538718.345351) slcan0 0A8#2200AE520A000000
(1660538718.345585) slcan0 0A7#0400000005000800
(1660538718.345967) slcan0 0A6#0500050002000000
(1660538718.346081) slcan0 0A5#CA050100010097FE
(1660538718.346488) slcan0 0A4#0000000000000000
(1660538718.346513) slcan0 0A3#EB31C31EECB5E71E
(1660538718.353328) slcan0 0AD#FFFF000000000000
(1660538718.353587) slcan0 0AC#00000200198F1600
(1660538718.353859) slcan0 0AB#0000000000000000
(1660538718.354016) slcan0 0AA#0400090000000001
(1660538718.354316) slcan0 0A8#2200AE5208000400
(1660538718.354580) slcan0 0A7#0500000007000800
(1660538718.354765) slcan0 0A6#0000070008000000
(1660538718.355018) slcan0 0A5#C8050000000096FE
(1660538718.355306) slcan0 0A4#0000000000000000
(1660538718.355459) slcan0 0A3#EB31C31EECB5D71E
(1660538718.362356) slcan0 0AD#0100000000000000
(1660538718.362507) slcan0 0AC#000000001C8F1600
(1660538718.362799) slcan0 0AB#0000000000000000
(1660538718.363013) slcan0 0AA#0400090000000001
(1660538718.363251) slcan0 0A8#2200AE52FDFF0000
(1660538718.363543) slcan0 0A7#050000000C000000
(1660538718.363714) slcan0 6B2#00003F093F097F5C
(1660538718.363883) slcan0 0A6#FEFFFFFFFAFF0000
(1660538718.363973) slcan0 0A5#C7050000000096FE
(1660538718.364268) slcan0 0A4#0000000000000000
(1660538718.364476) slcan0 0A3#EC31C31EEBB1D71E
(1660538718.371314) slcan0 0AD#0100000000000000
(1660538718.371558) slcan0 0AC#0000FFFF1F8F1600
(1660538718.371805) slcan0 0AB#0000000000000000
(1660538718.372014) slcan0 0AA#0400090000000001
(1660538718.372351) slcan0 0A8#2200AE520700FEFF
(1660538718.372557) slcan0 0A7#0600000003000800
(1660538718.372667) slcan0 0A6#0500010005000000
(1660538718.373085) slcan0 0A5#C7050000000097FE
(1660538718.373320) slcan0 0A4#0000000000000000
(1660538718.373459) slcan0 0A3#EB31C31EEBB1E71E
(1660538718.380382) slcan0 0AD#0100000000000000
(1660538718.380500) slcan0 0AE#1000C01915051920
(1660538718.380837) slcan0 0AC#00000000228F1600
(1660538718.381059) slcan0 0AB#0000000000000000
(1660538718.381218) slcan0 0AA#0400090000000001
(1660538718.381541) slcan0 0A9#9600FB00FA014A05
(1660538718.381731) slcan0 0A8#2200AE52F6FF0000
(1660538718.381921) slcan0 0A7#0400000007000300
(1660538718.382189) slcan0 0A6#FBFFFCFF00000000
(1660538718.382483) slcan0 0A5#C7050000000098FE
(1660538718.382608) slcan0 0A4#0000000000000000
(1660538718.382880) slcan0 0A3#EB31C31EECB5E71E
(1660538718.383063) slcan0 0A2#F0D8F0D80B010000
(1660538718.383383) slcan0 0A1#0B01FB07F007F0D8
(1660538718.383564) slcan0 0A0#DB00DE00DD000A01
(1660538718.385481) slcan0 0C0#0000000001000000
(1660538718.387773) slcan0 6B1#B1001F00131112BF
(1660538718.412803) slcan0 0AD#0100000000000000
(1660538718.412995) slcan0 0AC#00000000258F1600
(1660538718.413149) slcan0 0AB#0000000000000000
(1660538718.413291) slcan0 0A8#2200AE520A000000
(1660538718.413443) slcan0 0A3#EC35C31EECB5D71E
(1660538718.413596) slcan0 0AA#0400090000000001
(1660538718.413756) slcan0 6B2#00003F093F097F5C
(1660538718.416257) slcan0 0AD#FFFF000000000000
(1660538718.416508) slcan0 0AC#000001002E8F1600
(1660538718.416779) slcan0 0AB#0000000000000000
(1660538718.416937) slcan0 0AA#0400090000000001
(1660538718.417329) slcan0 0A8#2200AE5205000200
(1660538718.417560) slcan0 0A7#050000000A000600
(1660538718.417742) slcan0 0A6#0000050000000000
(1660538718.418028) slcan0 0A5#C7050000000098FE
(1660538718.418329) slcan0 0A4#0000000000000000
(1660538718.418405) slcan0 0A3#EC35B31EECB5D71E
(1660538718.425324) slcan0 0AD#0100000000000000
(1660538718.425498) slcan0 0AC#00000000318F1600
(1660538718.425773) slcan0 0AB#0000000000000000
(1660538718.426053) slcan0 0AA#0400090000000001
(1660538718.426237) slcan0 0A8#2200AE5208000000
(1660538718.426536) slcan0 0A7#0500000003000300
(1660538718.426784) slcan0 0A6#0200050005000000
(1660538718.426928) slcan0 0A5#C7050000000099FE
(1660538718.427315) slcan0 0A4#0000000000000000
(1660538718.427484) slcan0 0A3#EB31B31EECB5D71E
(1660538718.434291) slcan0 0AD#0300000000000000
(1660538718.434488) slcan0 0C3#000009A0000000
(1660538718.434590) slcan0 0AC#00000000348F1600
(1660538718.434798) slcan0 0AB#0000000000000000
(1660538718.434980) slcan0 0AA#0400090000000001
(1660538718.435291) slcan0 0A8#2200AE5202000000
(1660538718.435474) slcan0 0C4#4F08860532073207
(1660538718.435630) slcan0 0A7#0400000005000A00
(1660538718.435784) slcan0 0A6#0000020005000000
(1660538718.435909) slcan0 0C0#0000000001000000
(1660538718.436062) slcan0 0A5#C5050000000099FE
(1660538718.436211) slcan0 0A4#0000000000000000
(1660538718.436454) slcan0 0A3#EB31C31EECB5E71E
(1660538718.443282) slcan0 0AD#0100000000000000
(1660538718.443470) slcan0 0AC#00000000378F1600
(1660538718.443766) slcan0 0AB#0000000000000000
(1660538718.444044) slcan0 0AA#0400090000000001
(1660538718.444203) slcan0 0A8#2200AE5202000000
(1660538718.444506) slcan0 0A7#0600000003000100
(1660538718.444761) slcan0 0A6#0000010005000000
(1660538718.444933) slcan0 0A5#C605000000009BFE
(1660538718.445221) slcan0 0A4#0000000000000000
(1660538718.445461) slcan0 0A3#EB31C31EEBB1E71E
(1660538718.452341) slcan0 0AD#FFFF000000000000
(1660538718.452524) slcan0 0AC#000000003A8F1600
(1660538718.452806) slcan0 0AB#0000000000000000
(1660538718.452959) slcan0 0AA#0400090000000001
(1660538718.453287) slcan0 0A8#2200AE5200000000
(1660538718.453521) slcan0 0A7#020000000C000D00
(1660538718.453736) slcan0 0A6#0000FFFF00000000
(1660538718.454053) slcan0 0A5#C605000000009CFE
(1660538718.454348) slcan0 0A4#0000000000000000
(1660538718.454403) slcan0 0A3#EB31C31EEBB1D71E
(1660538718.459622) slcan0 6B2#00003F093F097F5C
(1660538718.461319) slcan0 0AD#0000000000000000
(1660538718.461577) slcan0 0AC#0000FDFF3D8F1600
(1660538718.461762) slcan0 0AB#0000000000000000
(1660538718.462060) slcan0 0AA#0400090000000001
(1660538718.462350) slcan0 0A8#2200AE52F7FFFAFF
(1660538718.462501) slcan0 0A7#050000000C000300
(1660538718.462758) slcan0 0A6#0000F7FFF5FF0000
(1660538718.462861) slcan0 0A5#C505000000009CFE
(1660538718.463162) slcan0 0A4#0000000000000000
(1660538718.463413) slcan0 0A3#EB31C31EEBB1D71E
(1660538718.470401) slcan0 0AD#0000000000000000
(1660538718.470613) slcan0 0AC#00000000408F1600
(1660538718.471048) slcan0 0AB#0000000000000000
(1660538718.471064) slcan0 0AA#0400090000000001
(1660538718.471367) slcan0 0A8#2200AE52FDFF0000
(1660538718.471676) slcan0 0A7#0600000007000100
(1660538718.471760) slcan0 0A6#FEFF000000000000
(1660538718.472042) slcan0 0A5#C605000000009DFE
(1660538718.472393) slcan0 0A4#0000000000000000
(1660538718.472559) slcan0 0A3#EC31C31EEBB1D71E
(1660538718.479358) slcan0 0AD#0000000000000000
(1660538718.479475) slcan0 0AE#1000C01915051920
(1660538718.479765) slcan0 0AC#00000100438F1600
(1660538718.480047) slcan0 0AB#0000000000000000
(1660538718.480218) slcan0 0AA#0400090000000001
(1660538718.480511) slcan0 0A9#9600FA00FA015005
(1660538718.480668) slcan0 0A8#2200AE5204000200
(1660538718.480987) slcan0 0A7#0500000007000100
(1660538718.481232) slcan0 0A6#000004000A000000
(1660538718.481510) slcan0 0A5#C605000000009CFE
(1660538718.481674) slcan0 0A4#0000000000000000
(1660538718.481963) slcan0 0A3#EC31B31EEBB1D71E
(1660538718.482094) slcan0 0A2#F0D8F0D80B010000
(1660538718.482381) slcan0 0A1#0B01FB07F007F0D8
(1660538718.482634) slcan0 0A0#DC00DE00DD000A01
(1660538718.485684) slcan0 0C0#0000000001000000
(1660538718.488384) slcan0 0AD#0100000000000000
(1660538718.512837) slcan0 0AB#0000000000000000
(1660538718.513021) slcan0 0AC#00000000468F1600
(1660538718.513190) slcan0 0AA#0400090000000001
(1660538718.513358) slcan0 0A7#0600000001000300
(1660538718.513497) slcan0 0A3#EC31C31EEBB1E71E
(1660538718.513650) slcan0 0A8#2200AE5204000000
(1660538718.513831) slcan0 6B2#00003F093F097F5C
(1660538718.515236) slcan0 0AD#0100000000000000
(1660538718.515454) slcan0 0AC#000001004F8F1600
(1660538718.515773) slcan0 0AB#0000000000000000
(1660538718.515932) slcan0 0AA#0400090000000001
(1660538718.516278) slcan0 0A8#2200AE5204000200
(1660538718.516493) slcan0 0A7#0600000005000800
(1660538718.516625) slcan0 0A6#0000040002000000
(1660538718.516949) slcan0 0A5#C705000000009AFE
(1660538718.517263) slcan0 0A4#0000000000000000
(1660538718.517447) slcan0 0A3#EB31C31EEBB1D71E
(1660538718.524544) slcan0 0AD#0200000000000000
(1660538718.524572) slcan0 0AC#0000FEFF528F1600
(1660538718.524652) slcan0 0AB#0000000000000000
(1660538718.525150) slcan0 0AA#0400090000000001
(1660538718.525177) slcan0 0A8#2200AE52FAFFFCFF
(1660538718.525494) slcan0 0A7#020000000A000600
(1660538718.525704) slcan0 0A6#0000F9FFFDFF0000
(1660538718.525961) slcan0 0A5#C6050000000099FE
(1660538718.526250) slcan0 0A4#0000000000000000
(1660538718.526496) slcan0 0A3#EB31C31EEBB1D71E
(1660538718.533607) slcan0 0AD#0100000000000000
(1660538718.533717) slcan0 0AC#0000FDFF558F1600
(1660538718.533897) slcan0 0AB#0000000000000000
(1660538718.534191) slcan0 0AA#0400090000000001
(1660538718.534456) slcan0 0A8#2200AE52FDFF0000
(1660538718.534591) slcan0 0C3#000009A0000000
(1660538718.534714) slcan0 0A7#0500000003000600
(1660538718.534954) slcan0 0A6#FEFFFFFF00000000
(1660538718.535131) slcan0 0A5#C805010000009BFE
(1660538718.535388) slcan0 0A4#0000000000000000
(1660538718.535555) slcan0 0C4#4C08840532073207
(1660538718.535720) slcan0 0A3#EB31C31EEBB1D71E
(1660538718.535894) slcan0 0C0#0000000001000000
(1660538718.542452) slcan0 0AD#0100000000000000
(1660538718.542586) slcan0 0AC#00000100588F1600
(1660538718.542847) slcan0 0AB#0000000000000000
(1660538718.543132) slcan0 0AA#0400090000000001
(1660538718.543337) slcan0 0A8#2200AE5204000200
(1660538718.543596) slcan0 0A7#0600000005000800
(1660538718.543883) slcan0 0A6#0000040002000000
(1660538718.544055) slcan0 0A5#C505000000009AFE
(1660538718.544340) slcan0 0A4#0000000000000000
(1660538718.544482) slcan0 0A3#EB31B31EEBB1D71E
(1660538718.551356) slcan0 0AD#0100000000000000
(1660538718.551649) slcan0 0AC#000000005B8F1600
(1660538718.551816) slcan0 0AB#0000000000000000
(1660538718.552090) slcan0 0AA#0400090000000001
(1660538718.552360) slcan0 0A8#2200AE52FFFF0000
(1660538718.552529) slcan0 0A7#060000000C000100
(1660538718.552813) slcan0 0A6#0000FFFFFDFF0000
(1660538718.553102) slcan0 0A5#C505000000009AFE
(1660538718.553340) slcan0 0A4#0000000000000000
(1660538718.553518) slcan0 0A3#EC31B31EEBB1D71E
(1660538718.555713) slcan0 6B2#00003F093F097F5C
(1660538718.560605) slcan0 0AD#0000000000000000
(1660538718.560633) slcan0 0AC#000000005E8F1600
(1660538718.560841) slcan0 0AB#0000000000000000
(1660538718.561122) slcan0 0AA#0400090000000001
(1660538718.561303) slcan0 0A8#2200AE52FCFF0000
(1660538718.561532) slcan0 0A7#0800000007000000
(1660538718.561800) slcan0 0A6#FDFFFFFFFEFF0000
(1660538718.561972) slcan0 0A5#C505000000009AFE
(1660538718.562214) slcan0 0A4#0000000000000000
(1660538718.562364) slcan0 0A3#EC31C31EECB5D71E
(1660538718.569449) slcan0 0AD#0000000000000000
(1660538718.569623) slcan0 0AC#00000000618F1600
(1660538718.569917) slcan0 0AB#0000000000000000
(1660538718.570082) slcan0 0AA#0400090000000001
(1660538718.570359) slcan0 0A8#2200AE52FFFF0200
(1660538718.570644) slcan0 0A7#060000000A000600
(1660538718.570734) slcan0 0A6#FDFF0100FEFF0000
(1660538718.571065) slcan0 0A5#C505000000009BFE
(1660538718.571345) slcan0 0A4#0000000000000000
(1660538718.571467) slcan0 0A3#EB31C31EECB5D71E
(1660538718.578613) slcan0 0AD#0100000000000000
(1660538718.578640) slcan0 0AE#1000C01915051920
(1660538718.578824) slcan0 0AC#00000000648F1600
(1660538718.579117) slcan0 0AB#0000000000000000
(1660538718.579323) slcan0 0AA#0400090000000001
(1660538718.579576) slcan0 0A9#9600FA00FA015205
(1660538718.579806) slcan0 0A8#2200AE52FFFF0000
(1660538718.580042) slcan0 0A7#0400000005000600
(1660538718.580324) slcan0 0A6#0500070005000000
(1660538718.580582) slcan0 0A5#C505000000009AFE
(1660538718.580748) slcan0 0A4#0000000000000000
(1660538718.581032) slcan0 0A3#EB31C31EECB5E71E
(1660538718.581189) slcan0 0A2#F0D8F0D80C010000
(1660538718.581464) slcan0 0A1#0B01FB07F007F0D8
(1660538718.581739) slcan0 0A0#DC00DF00DD000B01
(1660538718.585583) slcan0 0C0#0000000001000000
(1660538718.587504) slcan0 0AD#0000000000000000
(1660538718.587530) slcan0 0AC#00000000678F1600
(1660538718.587868) slcan0 0AB#0000000000000000
(1660538718.588138) slcan0 0AA#0400090000000001
(1660538718.588325) slcan0 0A8#2200AE52FCFF0000
(1660538718.612751) slcan0 0A7#0400000001000000
(1660538718.612946) slcan0 0A6#0200040000000000
(1660538718.613115) slcan0 0A5#C605000000009BFE
(1660538718.613276) slcan0 0A3#EB35C31EECB5E71E
(1660538718.613476) slcan0 0A3#EB35C31EEBB1D71E
(1660538718.613628) slcan0 0A4#0000000000000000
(1660538718.613754) slcan0 6B2#00003F093F097F5C
(1660538718.614337) slcan0 0AD#FFFF000000000000
(1660538718.614474) slcan0 0AC#00000000708F1600
(1660538718.614776) slcan0 0AB#0000000000000000
(1660538718.615015) slcan0 0AA#0400090000000001
(1660538718.615275) slcan0 0A8#2200AE5201000000
(1660538718.615591) slcan0 0A7#0400000003000600
(1660538718.615771) slcan0 0A6#0000010002000000
(1660538718.616002) slcan0 0A5#C7050000000098FE
(1660538718.616270) slcan0 0A4#0000000000000000
(1660538718.616438) slcan0 0A3#EB35C31EEBB1D71E
(1660538718.623373) slcan0 0AD#0200000000000000
(1660538718.623645) slcan0 0AC#0000FFFF738F1600
(1660538718.623772) slcan0 0AB#0000000000000000
(1660538718.624098) slcan0 0AA#0400090000000001
(1660538718.624343) slcan0 0A8#2200AE52FCFFFEFF
(1660538718.624579) slcan0 0A7#0200000005000100
(1660538718.624787) slcan0 0A6#0000FCFF00000000
(1660538718.625059) slcan0 0A5#C505000000009AFE
(1660538718.625336) slcan0 0A4#0000000000000000
(1660538718.625544) slcan0 0A3#EB35B31EECB5D71E
(1660538718.632306) slcan0 0AD#0100000000000000
(1660538718.632524) slcan0 0AC#00000000768F1600
(1660538718.632780) slcan0 0AB#0000000000000000
(1660538718.633137) slcan0 0AA#0400090000000001
(1660538718.633328) slcan0 0A8#2200AE5204000000
(1660538718.633589) slcan0 0A7#0500000005000300
(1660538718.633770) slcan0 0A6#0200010000000000
(1660538718.634054) slcan0 0A5#C705000000009AFE
(1660538718.634264) slcan0 0A4#0000000000000000
(1660538718.634424) slcan0 0C3#000009A0000000
(1660538718.634637) slcan0 0A3#EB31B31EECB5D71E
(1660538718.635577) slcan0 0C4#4D08840532073207
(1660538718.635694) slcan0 0C0#0000000001000000
(1660538718.641375) slcan0 0AD#0100000000000000
(1660538718.641613) slcan0 0AC#0000FEFF798F1600
(1660538718.641764) slcan0 0AB#0000000000000000
(1660538718.642138) slcan0 0AA#0400090000000001
(1660538718.642343) slcan0 0A8#2200AE520000FCFF
(1660538718.642528) slcan0 0A7#0000000007000800
(1660538718.642794) slcan0 0A6#0200FCFF0B000000
(1660538718.643084) slcan0 0A5#C605000000009BFE
(1660538718.643318) slcan0 0A4#0000000000000000
(1660538718.643525) slcan0 0A3#EB31C31EECB5E71E
(1660538718.650350) slcan0 0AD#0200000000000000
(1660538718.650506) slcan0 0AC#000000007C8F1600
(1660538718.650762) slcan0 0AB#0000000000000000
(1660538718.651098) slcan0 0AA#0400090000000001
(1660538718.651319) slcan0 0A8#2200AE5210000000
(1660538718.651580) slcan0 0A7#0500000007000800
(1660538718.651765) slcan0 0A6#0800080008000000
(1660538718.652014) slcan0 6B2#00003F093F097F5C
(1660538718.652136) slcan0 0A5#C805000000009DFE
(1660538718.652324) slcan0 0A4#0000000000000000
(1660538718.652516) slcan0 0A3#EB31C31EECB5E71E
(1660538718.659591) slcan0 0AD#0200000000000000
(1660538718.659654) slcan0 0AC#000000007F8F1600
(1660538718.659938) slcan0 0AB#0000000000000000
(1660538718.660120) slcan0 0AA#0400090000000001
(1660538718.660379) slcan0 0A8#2200AE52FAFFFFFF
(1660538718.660697) slcan0 0A7#0200000005000000
(1660538718.660865) slcan0 0A6#FEFFFCFF00000000
(1660538718.661126) slcan0 0A5#C905010000009BFE
(1660538718.661430) slcan0 0A4#0000000000000000
(1660538718.661612) slcan0 0A3#EC31B31EECB5D71E
(1660538718.668377) slcan0 0AD#FFFF000000000000
(1660538718.668543) slcan0 0AC#00000100828F1600
(1660538718.668814) slcan0 0AB#0000000000000000
(1660538718.669112) slcan0 0AA#0400090000000001
(1660538718.669316) slcan0 0A8#2200AE5200000200
(1660538718.669554) slcan0 0A7#060000000C000100
(1660538718.669792) slcan0 0A6#FEFF010005000000
(1660538718.669970) slcan0 0A5#C705000000009BFE
(1660538718.670305) slcan0 0A4#0000000000000000
(1660538718.670524) slcan0 0A3#EC35B31EECB5D71E
(1660538718.677372) slcan0 0AD#FFFF000000000000
(1660538718.677600) slcan0 0AE#1000C01915051920
(1660538718.677799) slcan0 0AC#00000000858F1600
(1660538718.678049) slcan0 0AB#0000000000000000
(1660538718.678358) slcan0 0AA#0400090000000001
(1660538718.678603) slcan0 0A9#9600FA00FB015105
(1660538718.678773) slcan0 0A8#2200AE52F8FF0000
(1660538718.679076) slcan0 0A7#020000000C000D00
(1660538718.679318) slcan0 0A6#FBFFFDFFFEFF0000
(1660538718.679448) slcan0 0A5#C805000000009BFE
(1660538718.679734) slcan0 0A4#0000000000000000
(1660538718.679913) slcan0 0A3#EB35C31EECB5D71E
(1660538718.680503) slcan0 0A2#F0D8F0D80F010000
(1660538718.680520) slcan0 0A1#0A01FB07F007F0D8
(1660538718.680699) slcan0 0A0#DC00DE00DD000A01
(1660538718.685667) slcan0 0C0#0000000001000000
(1660538718.686518) slcan0 0AD#0200000000000000
(1660538718.686535) slcan0 0AC#00000000888F1600
(1660538718.686850) slcan0 0AB#0000000000000000
(1660538718.687064) slcan0 0AA#0400090000000001
(1660538718.687339) slcan0 0A8#2200AE5208000000
(1660538718.687625) slcan0 0A7#0000000003000A00
(1660538718.687801) slcan0 0A6#0200040005000000
(1660538718.688074) slcan0 0A5#C905000000009BFE
(1660538718.688298) slcan0 0A4#0000000000000000
(1660538718.712974) slcan0 0A3#EB31C31EECB5E71E
(1660538718.713040) slcan0 0AD#0200000000000000
(1660538718.713187) slcan0 0AC#000000008B8F1600
(1660538718.713355) slcan0 0AA#0400090000000001
(1660538718.713525) slcan0 0AB#0000000000000000
(1660538718.713648) slcan0 0A3#EC31C31EECB1D71E
(1660538718.713823) slcan0 0AC#00000000918F1600
(1660538718.713857) slcan0 0AD#0200000000000000
(1660538718.714070) slcan0 0AB#0000000000000000
