(1660594583.494005) slcan0 0C3#000009A0000000
(1660594583.494218) slcan0 0AC#00000100E7A80A00
(1660594583.494317) slcan0 0AB#0000000000000000
(1660594583.494473) slcan0 0A7#0600000007000600
(1660594583.494647) slcan0 0A8#2200780E03000200
(1660594583.494829) slcan0 0A6#FFFFFEFF05000000
(1660594583.494972) slcan0 0A5#FE040000000069FF
(1660594583.495051) slcan0 0A8#2200780EFDFFFEFF
(1660594583.495219) slcan0 0AA#0400090000000001
(1660594583.495378) slcan0 0AD#0000000000000000
(1660594583.495556) slcan0 0A3#EC39C31EECB5D71E
(1660594583.495756) slcan0 0C0#0000000001000000
(1660594583.495911) slcan0 6B2#00003F093F097F5C
(1660594583.502272) slcan0 0AD#0200000000000000
(1660594583.502457) slcan0 0AC#00000100F0A80A00
(1660594583.502741) slcan0 0AB#0000000000000000
(1660594583.502992) slcan0 0AA#0400090000000001
(1660594583.503181) slcan0 0A8#2200780EFBFF0300
(1660594583.503458) slcan0 0A7#0600000001000600
(1660594583.503731) slcan0 0A6#F9FF020005000000
(1660594583.503884) slcan0 0A5#0105000000006AFF
(1660594583.504160) slcan0 0A4#0000000000000000
(1660594583.504354) slcan0 6B1#B1001F00131112BF
(1660594583.504514) slcan0 0A3#EB39C31EECB5D71E
(1660594583.511110) slcan0 0AD#0200000000000000
(1660594583.511311) slcan0 0AE#1000C01915051920
(1660594583.511571) slcan0 0AC#00000000F3A80A00
(1660594583.511858) slcan0 0AB#0000000000000000
(1660594583.512018) slcan0 0AA#0400090000000001
(1660594583.512306) slcan0 0A9#9600FA00FA015105
(1660594583.512590) slcan0 0A8#2200780EFBFF0000
(1660594583.512757) slcan0 0A7#040000000A000800
(1660594583.513057) slcan0 0A6#FCFF000000000000
(1660594583.513303) slcan0 0A5#0005000000006AFF
(1660594583.513487) slcan0 0A4#0000000000000000
(1660594583.513756) slcan0 0A3#EB39C31EECB5D71E
(1660594583.513939) slcan0 0A2#F0D8F0D81B010000
(1660594583.514232) slcan0 0A1#1101FB07F007F0D8
(1660594583.514481) slcan0 0A0#E100E300E2000F01
(1660594583.520131) slcan0 0AD#0100000000000000
(1660594583.520309) slcan0 0AC#00000000F6A80A00
(1660594583.520571) slcan0 0AB#0000000000000000
(1660594583.520859) slcan0 0AA#0400090000000001
(1660594583.521055) slcan0 0A8#2200780EFFFF0000
(1660594583.521325) slcan0 0A7#070000000A000800
(1660594583.521573) slcan0 0A6#FFFF0000FDFF0000
(1660594583.521772) slcan0 0A5#0005000000006AFF
(1660594583.522027) slcan0 0A4#0000000000000000
(1660594583.522295) slcan0 0A3#EB39C31EECB5D71E
(1660594583.529110) slcan0 0AD#0100000000000000
(1660594583.529342) slcan0 0AC#00000000F9A80A00
(1660594583.529620) slcan0 0AB#0000000000000000
(1660594583.529808) slcan0 0AA#0400090000000001
(1660594583.530066) slcan0 0A8#2200780E05000000
(1660594583.530353) slcan0 0A7#070000000C000800
(1660594583.530537) slcan0 0A6#04000000FDFF0000
(1660594583.530811) slcan0 0A5#0005000000006AFF
(1660594583.531095) slcan0 0A4#0000000000000000
(1660594583.531247) slcan0 0A3#EB39C31EECB5D71E
(1660594583.536332) slcan0 6B2#00003F093F097F5C
(1660594583.538107) slcan0 0AD#0100000000000000
(1660594583.538296) slcan0 0AC#00000000FCA80A00
(1660594583.538554) slcan0 0AB#0000000000000000
(1660594583.538831) slcan0 0AA#0400090000000001
(1660594583.539115) slcan0 0A8#2200780E02000000
(1660594583.539293) slcan0 0A7#0900000005000800
(1660594583.539579) slcan0 0A6#0100000000000000
(1660594583.539834) slcan0 0A5#0005000000006AFF
(1660594583.540012) slcan0 0A4#0000000000000000
(1660594583.540286) slcan0 0A3#EB39C31EECB5E71E
(1660594583.543769) slcan0 0C0#0000000001000000
(1660594583.547063) slcan0 0AD#0100000000000000
(1660594583.547318) slcan0 0AC#0000FFFFFFA80A00
(1660594583.547606) slcan0 0AB#0000000000000000
(1660594583.547782) slcan0 0AA#0400090000000001
(1660594583.548059) slcan0 0A8#2200780E0000FEFF
(1660594583.548332) slcan0 0A7#0600000007000100
(1660594583.548521) slcan0 0A6#0100FEFF02000000
(1660594583.548824) slcan0 0A5#0105000000006AFF
(1660594583.549076) slcan0 0A4#0000000000000000
(1660594583.549211) slcan0 0A3#EC39C31EECB5E71E
(1660594583.556114) slcan0 0AD#0100000000000000
(1660594583.556273) slcan0 0AC#0000FEFF02A90A00
(1660594583.556566) slcan0 0AB#0000000000000000
(1660594583.556845) slcan0 0AA#0400090000000001
(1660594583.557102) slcan0 0A8#2200780EF8FFFCFF
(1660594583.557276) slcan0 0A7#070000000C000600
(1660594583.557571) slcan0 0A6#FCFFFBFF00000000
(1660594583.557846) slcan0 0A5#0105000000006BFF
(1660594583.558027) slcan0 0A4#0000000000000000
(1660594583.558286) slcan0 0A3#EC39C31EECB5E71E
(1660594583.565144) slcan0 0AD#0100000000000000
(1660594583.565404) slcan0 0AC#0000030005A90A00
(1660594583.565753) slcan0 0AB#0000000000000000
(1660594583.565858) slcan0 0AA#0400090000000001
(1660594583.566136) slcan0 0A8#2200780E00000500
(1660594583.566434) slcan0 0A7#0600000005000600
(1660594583.566594) slcan0 0A6#FCFF0500FDFF0000
(1660594583.566891) slcan0 0A5#0105000000006AFF
(1660594583.567148) slcan0 0A4#0000000000000000
(1660594583.567322) slcan0 0A3#EC39C31EECB5E71E
(1660594583.594091) slcan0 0C3#000009A0000000
(1660594583.594242) slcan0 0AC#0000000008A90A00
(1660594583.594398) slcan0 0AB#0000000000000000
(1660594583.594559) slcan0 0A8#2200780E05000000
(1660594583.594719) slcan0 0A3#EB39C31EECB5D71E
(1660594583.594843) slcan0 0AA#0400090000000001
(1660594583.594972) slcan0 0AD#0200000000000000
(1660594583.595124) slcan0 0C0#0000000001000000
(1660594583.595277) slcan0 0C4#3708860533073307
(1660594583.595490) slcan0 6B2#00003F093F097F5C
(1660594583.601012) slcan0 0AD#0000000000000000
(1660594583.601296) slcan0 0AC#0000000011A90A00
(1660594583.601584) slcan0 0AB#0000000000000000
(1660594583.601755) slcan0 0AA#0400090000000001
(1660594583.602018) slcan0 0A8#2200780E02000000
(1660594583.602306) slcan0 0A7#080000000A000600
(1660594583.602488) slcan0 0A6#0100000008000000
(1660594583.602762) slcan0 0A5#0105000000006AFF
(1660594583.603045) slcan0 0A4#0000000000000000
(1660594583.603201) slcan0 0A3#EB39C31EECB5D71E
(1660594583.608270) slcan0 6B1#B1001F00131112BF
(1660594583.610148) slcan0 0AD#0000000000000000
(1660594583.610336) slcan0 0AE#1000C01915051920
(1660594583.610636) slcan0 0AC#0000000014A90A00
(1660594583.610910) slcan0 0AB#0000000000000000
(1660594583.611065) slcan0 0AA#0400090000000001
(1660594583.611279) slcan0 0A9#9700FA00FA015205
(1660594583.611568) slcan0 0A8#2200780EFFFF0000
(1660594583.611795) slcan0 0A7#050000000C000300
(1660594583.612076) slcan0 0A6#FFFF000002000000
(1660594583.612334) slcan0 0A5#0005000000006BFF
(1660594583.612516) slcan0 0A4#0000000000000000
(1660594583.612773) slcan0 0A3#EB39C31EECB5D71E
(1660594583.612957) slcan0 0A2#F0D8F0D81B010000
(1660594583.613232) slcan0 0A1#1101FB07F007F0D8
(1660594583.613515) slcan0 0A0#E100E300E2000F01
(1660594583.619151) slcan0 0AD#0100000000000000
(1660594583.619328) slcan0 0AC#0000000017A90A00
(1660594583.619611) slcan0 0AB#0000000000000000
(1660594583.619896) slcan0 0AA#0400090000000001
(1660594583.620066) slcan0 0A8#2200780E01000000
(1660594583.620358) slcan0 0A7#060000000A000000
(1660594583.620579) slcan0 0A6#01000000FEFF0000
(1660594583.620760) slcan0 0A5#0005000000006BFF
(1660594583.621037) slcan0 0A4#0000000000000000
(1660594583.621292) slcan0 0A3#EB39C31EECB5D71E
(1660594583.628190) slcan0 0AD#0200000000000000
(1660594583.628436) slcan0 0AC#0000FFFF1AA90A00
(1660594583.628622) slcan0 0AB#0000000000000000
(1660594583.628898) slcan0 0AA#0400090000000001
(1660594583.629156) slcan0 0A8#2200780EFDFFFEFF
(1660594583.629358) slcan0 0A7#0800000005000300
(1660594583.629617) slcan0 0A6#FCFFFBFF00000000
(1660594583.629897) slcan0 0A5#0105000000006AFF
(1660594583.630081) slcan0 0A4#0000000000000000
(1660594583.630341) slcan0 0A3#EB39C31EECB5D71E
(1660594583.632338) slcan0 6B2#00003F093F097F5C
(1660594583.637118) slcan0 0AD#0000000000000000
(1660594583.637296) slcan0 0AC#0000FFFF1DA90A00
(1660594583.637574) slcan0 0AB#0000000000000000
(1660594583.637842) slcan0 0AA#0400090000000001
(1660594583.638021) slcan0 0A8#2200780E0000FEFF
(1660594583.638307) slcan0 0A7#080000000E000600
(1660594583.638564) slcan0 0A6#0100FEFFFEFF0000
(1660594583.638742) slcan0 0A5#0005000000006AFF
(1660594583.639023) slcan0 0A4#0000000000000000
(1660594583.639276) slcan0 0A3#EB39C31EECB5D71E
(1660594583.643734) slcan0 0C0#0000000001000000
(1660594583.646069) slcan0 0AD#0000000000000000
(1660594583.646323) slcan0 0AC#0000000020A90A00
(1660594583.646663) slcan0 0AB#0000000000000000
(1660594583.646785) slcan0 0AA#0400090000000001
(1660594583.647067) slcan0 0A8#2200780E02000000
(1660594583.647325) slcan0 0A7#0600000007000800
(1660594583.647520) slcan0 0A6#0100000000000000
(1660594583.647788) slcan0 0A5#02050000000069FF
(1660594583.648083) slcan0 0A4#0000000000000000
(1660594583.648260) slcan0 0A3#EB39C31EECB5D71E
(1660594583.655093) slcan0 0AD#0100000000000000
(1660594583.655279) slcan0 0AC#0000FEFF23A90A00
(1660594583.655561) slcan0 0AB#0000000000000000
(1660594583.655832) slcan0 0AA#0400090000000001
(1660594583.656019) slcan0 0A8#2200780E02000500
(1660594583.656296) slcan0 0A7#0600000007000600
(1660594583.656557) slcan0 0A6#FFFF0500FEFF0000
(1660594583.656734) slcan0 0A5#01050000000068FF
(1660594583.657011) slcan0 0A4#0000000000000000
(1660594583.657270) slcan0 0A3#EB39C31EECB5D71E
(1660594583.664048) slcan0 0AD#FFFF000000000000
(1660594583.664323) slcan0 0AC#0000010026A90A00
(1660594583.664609) slcan0 0AB#0000000000000000
(1660594583.664787) slcan0 0AA#0400090000000001
(1660594583.665061) slcan0 0A8#2200780E03000200
(1660594583.665319) slcan0 0A7#0600000007000800
(1660594583.665503) slcan0 0A6#0400000000000000
(1660594583.665788) slcan0 0A5#01050000000068FF
(1660594583.666076) slcan0 0A4#0000000000000000
(1660594583.666234) slcan0 0A3#EB39C31EECB5D71E
(1660594583.693976) slcan0 0C3#000009A0000000
(1660594583.694128) slcan0 0AC#0000FFFF29A90A00
(1660594583.694261) slcan0 0AB#0000000000000000
(1660594583.694426) slcan0 0AA#0400090000000001
(1660594583.694589) slcan0 0A3#EB39C31EECB5D71E
(1660594583.694735) slcan0 0A8#2200780E0000FEFF
(1660594583.694895) slcan0 0AD#0100000000000000
(1660594583.695048) slcan0 0C0#0000000001000000
(1660594583.695209) slcan0 0C4#3708860533073307
(1660594583.695367) slcan0 6B2#00003F093F097F5C
(1660594583.700062) slcan0 0AD#0000000000000000
(1660594583.700330) slcan0 0AC#0000FFFF32A90A00
(1660594583.700614) slcan0 0AB#0000000000000000
(1660594583.700791) slcan0 0AA#0400090000000001
(1660594583.701047) slcan0 0A8#2200780E0000FEFF
(1660594583.701325) slcan0 0A7#050000000C000600
(1660594583.701502) slcan0 0A6#0100FEFF00000000
(1660594583.701787) slcan0 0A5#FF040000000068FF
(1660594583.702073) slcan0 0A4#0000000000000000
(1660594583.702228) slcan0 0A3#EB39C31EECB5D71E
(1660594583.709084) slcan0 0AD#0100000000000000
(1660594583.709260) slcan0 0AE#1000C01915051920
(1660594583.709540) slcan0 0AC#0000000035A90A00
(1660594583.709831) slcan0 0AB#0000000000000000
(1660594583.710012) slcan0 0AA#0400090000000001
(1660594583.710292) slcan0 0A9#9600FA00FA014D05
(1660594583.710554) slcan0 0A8#2200780E01000000
(1660594583.710742) slcan0 0A7#0700000007000600
(1660594583.711021) slcan0 0A6#01000000FDFF0000
(1660594583.711280) slcan0 0A5#FF040000000068FF
(1660594583.711483) slcan0 0A4#0000000000000000
(1660594583.711731) slcan0 0A3#EC39C31EECB5D71E
(1660594583.711921) slcan0 0A2#F0D8F0D81B010000
(1660594583.712204) slcan0 0A1#1101FB07F007F0D8
(1660594583.712362) slcan0 6B1#B1001F00131112BF
(1660594583.712497) slcan0 0A0#E100E300E2000F01
(1660594583.718110) slcan0 0AD#0100000000000000
(1660594583.718293) slcan0 0AC#0000FFFF38A90A00
(1660594583.718571) slcan0 0AB#0000000000000000
(1660594583.718835) slcan0 0AA#0400090000000001
(1660594583.719011) slcan0 0A8#2200780EFCFFFEFF
(1660594583.719295) slcan0 0A7#0700000007000600
(1660594583.719554) slcan0 0A6#FFFFFDFFFDFF0000
(1660594583.719737) slcan0 0A5#FE040000000069FF
(1660594583.720025) slcan0 0A4#0000000000000000
(1660594583.720280) slcan0 0A3#EB39C31EECB5E71E
(1660594583.727093) slcan0 0AD#0000000000000000
(1660594583.727351) slcan0 0AC#000000003BA90A00
(1660594583.727635) slcan0 0AB#0000000000000000
(1660594583.727791) slcan0 0AA#0400090000000001
(1660594583.728084) slcan0 0A8#2200780E01000000
(1660594583.728373) slcan0 0A7#0400000007000300
(1660594583.728538) slcan0 6B2#00003F093F097F5C
(1660594583.728733) slcan0 0A6#0000000002000000
(1660594583.728830) slcan0 0A5#FF040000000069FF
(1660594583.729089) slcan0 0A4#0000000000000000
(1660594583.729275) slcan0 0A3#EB39C31EECB5E71E
(1660594583.736130) slcan0 0AD#FFFF000000000000
(1660594583.736386) slcan0 0AC#0000FFFF3EA90A00
(1660594583.736608) slcan0 0AB#0000000000000000
(1660594583.736886) slcan0 0AA#0400090000000001
(1660594583.737128) slcan0 0A8#2200780EF8FFFEFF
(1660594583.737309) slcan0 0A7#0700000005000300
(1660594583.737568) slcan0 0A6#FBFFFDFFFEFF0000
(1660594583.737852) slcan0 0A5#00050000000069FF
(1660594583.737992) slcan0 0A4#0000000000000000
(1660594583.738323) slcan0 0A3#EB39C31EECB5D71E
(1660594583.743719) slcan0 0C0#0000000001000000
(1660594583.745107) slcan0 0AD#0100000000000000
(1660594583.745365) slcan0 0AC#0000FEFF41A90A00
(1660594583.745654) slcan0 0AB#0000000000000000
(1660594583.745793) slcan0 0AA#0400090000000001
(1660594583.746061) slcan0 0A8#2200780EFAFFFBFF
(1660594583.746334) slcan0 0A7#0200000007000300
(1660594583.746557) slcan0 0A6#FEFFFAFF00000000
(1660594583.746817) slcan0 0A5#00050000000067FF
(1660594583.747071) slcan0 0A4#0000000000000000
(1660594583.747260) slcan0 0A3#EB39C31EECB5D71E
(1660594583.754248) slcan0 0AD#0200000000000000
(1660594583.754502) slcan0 0AC#0000000044A90A00
(1660594583.754775) slcan0 0AB#0000000000000000
(1660594583.754979) slcan0 0AA#0400090000000001
(1660594583.755202) slcan0 0A8#2200780E0400FFFF
(1660594583.755483) slcan0 0A7#0700000005000000
(1660594583.755873) slcan0 0A6#0300000002000000
(1660594583.755963) slcan0 0A5#01050000000068FF
(1660594583.756199) slcan0 0A4#0000000000000000
(1660594583.756360) slcan0 0A3#EC39C31EECB5D71E
(1660594583.763094) slcan0 0AD#FFFF000000000000
(1660594583.763370) slcan0 0AC#0000FFFF47A90A00
(1660594583.763648) slcan0 0AB#0000000000000000
(1660594583.763803) slcan0 0AA#0400090000000001
(1660594583.764108) slcan0 0A8#2200780EF8FFFEFF
(1660594583.764374) slcan0 0A7#070000000A000A00
(1660594583.764552) slcan0 0A6#FBFFFDFF00000000
(1660594583.764804) slcan0 0A5#00050000000067FF
(1660594583.765061) slcan0 0A4#0000000000000000
(1660594583.765244) slcan0 0A3#EC39C31EECB5D71E
(1660594583.794049) slcan0 0C3#000009A0000000
(1660594583.794198) slcan0 0AC#000000004AA90A00
(1660594583.794339) slcan0 0AB#0000000000000000
(1660594583.794518) slcan0 0AA#0400090000000001
(1660594583.794615) slcan0 0A3#EB39C31EECB5D71E
(1660594583.794770) slcan0 0A8#2200780E00000000
(1660594583.794950) slcan0 0AD#0100000000000000
(1660594583.795076) slcan0 0C0#0000000001000000
(1660594583.795233) slcan0 0C4#3708860532073207
(1660594583.795399) slcan0 6B2#00003F093F097F5C
(1660594583.799098) slcan0 0AD#0200000000000000
(1660594583.799351) slcan0 0AC#0000010053A90A00
(1660594583.799606) slcan0 0AB#0000000000000000
(1660594583.799806) slcan0 0AA#0400090000000001
(1660594583.800117) slcan0 0A8#2200780E00000200
(1660594583.800372) slcan0 0A7#0700000007000800
(1660594583.800547) slcan0 0A6#FEFF020002000000
(1660594583.800825) slcan0 0A5#00050000000068FF
(1660594583.801070) slcan0 0A4#0000000000000000
(1660594583.801249) slcan0 0A3#EB39C31EECB5D71E
(1660594583.808151) slcan0 0AD#0000000000000000
(1660594583.808312) slcan0 0AE#1000C01915051920
(1660594583.808588) slcan0 0AC#0000000056A90A00
(1660594583.808852) slcan0 0AB#0000000000000000
(1660594583.809017) slcan0 0AA#0400090000000001
(1660594583.809333) slcan0 0A9#9600FA00FA015005
(1660594583.809611) slcan0 0A8#2200780E02000100
(1660594583.809777) slcan0 0A7#040000000A000600
(1660594583.810047) slcan0 0A6#0000020000000000
(1660594583.810331) slcan0 0A5#FF040000000068FF
(1660594583.810613) slcan0 0A4#0000000000000000
(1660594583.810737) slcan0 0A3#EB39C31EECB5D71E
(1660594583.811017) slcan0 0A2#F0D8F0D819010000
(1660594583.811195) slcan0 0A1#1101FB07F007F0D8
(1660594583.811485) slcan0 0A0#E100E300E2000F01
(1660594583.816315) slcan0 6B1#B1001F00131112BF
(1660594583.817234) slcan0 0AD#0100000000000000
(1660594583.817512) slcan0 0AC#0000000059A90A00
(1660594583.817769) slcan0 0AB#0000000000000000
(1660594583.817957) slcan0 0AA#0400090000000001
(1660594583.818234) slcan0 0A8#2200780E0300FFFF
(1660594583.818524) slcan0 0A7#070000000C000800
(1660594583.818737) slcan0 0A6#03000000FDFF0000
(1660594583.818937) slcan0 0A5#00050000000069FF
(1660594583.819236) slcan0 0A4#0000000000000000
(1660594583.819461) slcan0 0A3#EB39C31EECB5D71E
(1660594583.824284) slcan0 6B2#00003F093F097F5C
(1660594583.826057) slcan0 0AD#0200000000000000
(1660594583.826316) slcan0 0AC#000000005CA90A00
(1660594583.826601) slcan0 0AB#0000000000000000
(1660594583.826774) slcan0 0AA#0400090000000001
(1660594583.827108) slcan0 0A8#2200780E00000000
(1660594583.827325) slcan0 0A7#0500000007000600
(1660594583.827527) slcan0 0A6#0000000002000000
(1660594583.827804) slcan0 0A5#FF040000000069FF
(1660594583.828092) slcan0 0A4#0000000000000000
(1660594583.828230) slcan0 0A3#EB39C31EECB5D71E
(1660594583.835119) slcan0 0AD#FFFF000000000000
(1660594583.835303) slcan0 0AC#000000005FA90A00
(1660594583.835578) slcan0 0AB#0000000000000000
(1660594583.835829) slcan0 0AA#0400090000000001
(1660594583.836130) slcan0 0A8#2200780EFEFF0000
(1660594583.836286) slcan0 0A7#0500000005000600
(1660594583.836569) slcan0 0A6#FEFF000000000000
(1660594583.836828) slcan0 0A5#FF040000000068FF
(1660594583.837029) slcan0 0A4#0000000000000000
(1660594583.837290) slcan0 0A3#EB39C31EECB5D71E
(1660594583.843750) slcan0 0C0#0000000001000000
(1660594583.844250) slcan0 0AD#0100000000000000
(1660594583.844460) slcan0 0AC#0000FFFF62A90A00
(1660594583.844767) slcan0 0AB#0000000000000000
(1660594583.845014) slcan0 0AA#0400090000000001
(1660594583.845198) slcan0 0A8#2200780E0100FCFF
(1660594583.845457) slcan0 0A7#0600000007000100
(1660594583.845750) slcan0 0A6#0300FDFFFEFF0000
(1660594583.845960) slcan0 0A5#FF040000000068FF
(1660594583.846207) slcan0 0A4#0000000000000000
(1660594583.846462) slcan0 0A3#EB39C31EECB5D71E
(1660594583.853146) slcan0 0AD#FFFF000000000000
(1660594583.853270) slcan0 0AC#0000FFFF65A90A00
(1660594583.853608) slcan0 0AB#0000000000000000
(1660594583.853856) slcan0 0AA#0400090000000001
(1660594583.854063) slcan0 0A8#2200780E0100FCFF
(1660594583.854315) slcan0 0A7#0900000007000600
(1660594583.854595) slcan0 0A6#0300FDFF00000000
(1660594583.854789) slcan0 0A5#00050000000068FF
(1660594583.855070) slcan0 0A4#0000000000000000
(1660594583.855322) slcan0 0A3#EB35C31EECB5D71E
(1660594583.862096) slcan0 0AD#0200000000000000
(1660594583.862373) slcan0 0AC#0000000068A90A00
(1660594583.862633) slcan0 0AB#0000000000000000
(1660594583.862813) slcan0 0AA#0400090000000001
(1660594583.863094) slcan0 0A8#2200780E00000000
(1660594583.863377) slcan0 0A7#0600000003000300
(1660594583.863553) slcan0 0A6#0000000000000000
(1660594583.863836) slcan0 0A5#FE040000000069FF
(1660594583.864114) slcan0 0A4#0000000000000000
(1660594583.864273) slcan0 0A3#EB35C31EECB5D71E
(1660594583.894077) slcan0 0C3#000009A0000000
(1660594583.894230) slcan0 0AC#000001006BA90A00
(1660594583.894355) slcan0 0AB#0000000000000000
(1660594583.894526) slcan0 0AA#0400090000000001
(1660594583.894641) slcan0 0A3#EB39C31EEBB5D71E
(1660594583.894793) slcan0 0A8#2200780E00000200
(1660594583.894979) slcan0 0AD#0000000000000000
(1660594583.895092) slcan0 0C0#0000000001000000
(1660594583.895227) slcan0 0C4#3708860533073307
(1660594583.895424) slcan0 6B2#00003F093F097F5C
(1660594583.898106) slcan0 0AD#0000000000000000
(1660594583.898362) slcan0 0AC#0000FFFF74A90A00
(1660594583.898650) slcan0 0AB#0000000000000000
(1660594583.898812) slcan0 0AA#0400090000000001
(1660594583.899087) slcan0 0A8#2200780EF5FFFEFF
(1660594583.899360) slcan0 0A7#0600000005000300
(1660594583.899532) slcan0 0A6#F8FFFDFF02000000
(1660594583.899830) slcan0 0A5#FF04000000006AFF
(1660594583.900114) slcan0 0A4#0000000000000000
(1660594583.900272) slcan0 0A3#EB39C31EEBB5D71E
(1660594583.907128) slcan0 0AD#0000000000000000
(1660594583.907312) slcan0 0AE#1000C01915051920
(1660594583.907597) slcan0 0AC#0000000077A90A00
(1660594583.907856) slcan0 0AB#0000000000000000
(1660594583.908052) slcan0 0AA#0400090000000001
(1660594583.908327) slcan0 0A9#9700FA00FA015105
(1660594583.908559) slcan0 0A8#2200780EFEFF0000
(1660594583.908803) slcan0 0A7#0600000007000300
(1660594583.909062) slcan0 0A6#FEFF000008000000
(1660594583.909295) slcan0 0A5#FF04000000006BFF
(1660594583.909516) slcan0 0A4#0000000000000000
(1660594583.909780) slcan0 0A3#EB39C31EECB5D71E
(1660594583.909972) slcan0 0A2#F0D8F0D81B010000
(1660594583.910228) slcan0 0A1#1001FB07F007F0D8
(1660594583.910504) slcan0 0A0#E100E300E2000F01
(1660594583.916154) slcan0 0AD#0200000000000000
(1660594583.916312) slcan0 0AC#000001007AA90A00
(1660594583.916581) slcan0 0AB#0000000000000000
(1660594583.916874) slcan0 0AA#0400090000000001
(1660594583.917039) slcan0 0A8#2200780EFFFF0200
(1660594583.917327) slcan0 0A7#0600000007000600
(1660594583.917593) slcan0 0A6#FEFF010002000000
(1660594583.917749) slcan0 0A5#0105000000006AFF
(1660594583.918023) slcan0 0A4#0000000000000000
(1660594583.918269) slcan0 0A3#EB39C31EECB5D71E
(1660594583.920264) slcan0 6B1#B1001F00131112BF
(1660594583.920544) slcan0 6B2#00003F093F097F5C
(1660594583.925078) slcan0 0AD#0200000000000000
(1660594583.925361) slcan0 0AC#0000FFFF7DA90A00
(1660594583.925635) slcan0 0AB#0000000000000000
(1660594583.925811) slcan0 0AA#0400090000000001
(1660594583.926087) slcan0 0A8#2200780EFEFFFDFF
(1660594583.926366) slcan0 0A7#0700000007000A00
(1660594583.926538) slcan0 0A6#0000FCFFFEFF0000
(1660594583.926766) slcan0 0A5#FE04000000006BFF
(1660594583.927046) slcan0 0A4#0000000000000000
(1660594583.927224) slcan0 0A3#EB39C31EECB5D71E
(1660594583.934120) slcan0 0AD#0100000000000000
(1660594583.934403) slcan0 0AC#0000010080A90A00
(1660594583.934587) slcan0 0AB#0000000000000000
(1660594583.934857) slcan0 0AA#0400090000000001
(1660594583.935132) slcan0 0A8#2200780E00000200
(1660594583.935292) slcan0 0A7#0500000007000600
(1660594583.935562) slcan0 0A6#FEFF0200FEFF0000
(1660594583.935845) slcan0 0A5#0005000000006BFF
(1660594583.936024) slcan0 0A4#0000000000000000
(1660594583.936274) slcan0 0A3#EB35C31EECB5D71E
(1660594583.943202) slcan0 0AD#0100000000000000
(1660594583.943452) slcan0 0AC#0000010083A90A00
(1660594583.943792) slcan0 0C0#0000000001000000
(1660594583.943875) slcan0 0AB#0000000000000000
(1660594583.943989) slcan0 0AA#0400090000000001
(1660594583.944148) slcan0 0A8#2200780EFCFF0200
(1660594583.944401) slcan0 0A7#060000000A000600
(1660594583.944617) slcan0 0A6#FBFF0100FEFF0000
(1660594583.944899) slcan0 0A5#0005000000006CFF
(1660594583.945162) slcan0 0A4#0000000000000000
(1660594583.945345) slcan0 0A3#EC35C31EECB5D71E
(1660594583.952102) slcan0 0AD#0000000000000000
(1660594583.952380) slcan0 0AC#0000FFFF86A90A00
(1660594583.952559) slcan0 0AB#0000000000000000
(1660594583.952824) slcan0 0AA#0400090000000001
(1660594583.953109) slcan0 0A8#2200780EFBFFFDFF
(1660594583.953287) slcan0 0A7#0500000005000300
(1660594583.953544) slcan0 0A6#FEFFFCFF02000000
(1660594583.953849) slcan0 0A5#FF04000000006BFF
(1660594583.953999) slcan0 0A4#0000000000000000
(1660594583.954246) slcan0 0A3#EC39C31EECB5D71E
(1660594583.961047) slcan0 0AD#0100000000000000
(1660594583.961346) slcan0 0AC#0000000089A90A00
(1660594583.961605) slcan0 0AB#0000000000000000
(1660594583.961898) slcan0 0AA#0400090000000001
(1660594583.962075) slcan0 0A8#2200780EFDFF0000
(1660594583.962324) slcan0 0A7#050000000A000300
(1660594583.962598) slcan0 0A6#FEFFFFFFFBFF0000
(1660594583.962803) slcan0 0A5#0005000000006BFF
(1660594583.963045) slcan0 0A4#0000000000000000
(1660594583.963202) slcan0 0A3#EB39C31EECB5D71E
(1660594583.968397) slcan0 6B2#00003F093F097F5C
(1660594583.994075) slcan0 0C3#000009A0000000
(1660594583.994220) slcan0 0AC#000002008CA90A00
(1660594583.994369) slcan0 0AB#0000000000000000
(1660594583.994540) slcan0 0AA#0400090000000001
(1660594583.994682) slcan0 0A3#EB39C31EECB5D71E
(1660594583.994818) slcan0 0A8#2200780E00000400
(1660594583.994930) slcan0 0AD#0000000000000000
(1660594583.995089) slcan0 0C0#0000000001000000
(1660594583.995242) slcan0 0C4#3908870532073207
(1660594583.997031) slcan0 0AD#0000000000000000
(1660594583.997288) slcan0 0AC#0000FFFF95A90A00
(1660594583.997565) slcan0 0AB#0000000000000000
(1660594583.997742) slcan0 0AA#0400090000000001
(1660594583.998032) slcan0 0A8#2200780EFEFFFDFF
(1660594583.998316) slcan0 0A7#0800000005000300
(1660594583.998489) slcan0 0A6#0000FCFFFEFF0000
(1660594583.998767) slcan0 0A5#FE04000000006BFF
(1660594583.999042) slcan0 0A4#0000000000000000
(1660594583.999161) slcan0 0A3#EC39C31EECB5D71E
(1660594584.006193) slcan0 0AD#0100000000000000
(1660594584.006374) slcan0 0AE#1000C01915051920
(1660594584.006660) slcan0 0AC#0000FDFF98A90A00
(1660594584.006930) slcan0 0AB#0000000000000000
(1660594584.007117) slcan0 0AA#0400090000000001
(1660594584.007374) slcan0 0A9#9600FA00FA015105
(1660594584.007647) slcan0 0A8#2200780EF8FFFBFF
(1660594584.007824) slcan0 0A7#060000000A000300
(1660594584.008076) slcan0 0A6#FEFFF9FFFEFF0000
(1660594584.008356) slcan0 0A5#FE04000000006AFF
(1660594584.008533) slcan0 0A4#0000000000000000
(1660594584.008792) slcan0 0A3#EB39C31EECB5D71E
(1660594584.008990) slcan0 0A2#F0D8F0D81B010000
(1660594584.009267) slcan0 0A1#1101FB07F007F0D8
(1660594584.009545) slcan0 0A0#E100E300E2000F01
(1660594584.015131) slcan0 0AD#0000000000000000
(1660594584.015285) slcan0 0AC#0000FFFF9BA90A00
(1660594584.015578) slcan0 0AB#0000000000000000
(1660594584.015855) slcan0 0AA#0400090000000001
(1660594584.016133) slcan0 0A8#2200780EF8FFFEFF
(1660594584.016297) slcan0 0A7#0600000007000600
(1660594584.016408) slcan0 6B2#00003F093F097F5C
(1660594584.016564) slcan0 0A6#FBFFFDFFFEFF0000
(1660594584.016845) slcan0 0A5#FE04000000006AFF
(1660594584.017023) slcan0 0A4#0000000000000000
(1660594584.017249) slcan0 0A3#EB39C31EECB5D71E
(1660594584.024060) slcan0 0AD#0100000000000000
(1660594584.024321) slcan0 0AC#0000FFFF9EA90A00
(1660594584.024556) slcan0 6B1#B1001F00131112BF
(1660594584.024642) slcan0 0AB#0000000000000000
(1660594584.024862) slcan0 0AA#0400090000000001
(1660594584.025015) slcan0 0A8#2200780EF8FFFEFF
(1660594584.025245) slcan0 0A7#0600000005000300
(1660594584.025572) slcan0 0A6#FBFFFDFF00000000
(1660594584.025741) slcan0 0A5#FF04000000006AFF
(1660594584.026042) slcan0 0A4#0000000000000000
(1660594584.026220) slcan0 0A3#EB39C31EECB5D71E
(1660594584.033059) slcan0 0AD#0200000000000000
(1660594584.033346) slcan0 0AC#00000000A1A90A00
(1660594584.033542) slcan0 0AB#0000000000000000
(1660594584.033822) slcan0 0AA#0400090000000001
(1660594584.034088) slcan0 0A8#2200780EFAFF0000
(1660594584.034266) slcan0 0A7#0400000007000800
(1660594584.034522) slcan0 0A6#FBFF000000000000
(1660594584.034791) slcan0 0A5#FD040000000069FF
(1660594584.035064) slcan0 0A4#0000000000000000
(1660594584.035242) slcan0 0A3#EB39C31EECB5D71E
(1660594584.042148) slcan0 0AD#0200000000000000
(1660594584.042305) slcan0 0AC#00000000A4A90A00
(1660594584.042582) slcan0 0AB#0000000000000000
(1660594584.042855) slcan0 0AA#0400090000000001
(1660594584.043047) slcan0 0A8#2200780EFAFF0000
(1660594584.043328) slcan0 0A7#060000000A000A00
(1660594584.043600) slcan0 0A6#FBFF000002000000
(1660594584.043774) slcan0 0C0#0000000001000000
(1660594584.043898) slcan0 0A5#FF040000000069FF
(1660594584.044041) slcan0 0A4#0000000000000000
(1660594584.044194) slcan0 0A3#EC39C31EECB5E71E
(1660594584.051098) slcan0 0AD#0000000000000000
(1660594584.051346) slcan0 0AC#00000100A7A90A00
(1660594584.051546) slcan0 0AB#0000000000000000
(1660594584.051833) slcan0 0AA#0400090000000001
(1660594584.052094) slcan0 0A8#2200780EFCFF0200
(1660594584.052272) slcan0 0A7#0700000005000600
(1660594584.052468) slcan0 0A6#FBFF020000000000
(1660594584.052820) slcan0 0A5#FE040000000068FF
(1660594584.052974) slcan0 0A4#0000000000000000
(1660594584.053270) slcan0 0A3#EC39C31EECB5D71E
(1660594584.060097) slcan0 0AD#0200000000000000
(1660594584.060272) slcan0 0AC#00000000AAA90A00
(1660594584.060557) slcan0 0AB#0000000000000000
(1660594584.060823) slcan0 0AA#0400090000000001
(1660594584.060961) slcan0 0A8#2200780EF6FF0000
(1660594584.061282) slcan0 0A7#070000000A000300
(1660594584.061571) slcan0 0A6#F8FF0000FEFF0000
(1660594584.061746) slcan0 0A5#00050000000069FF
(1660594584.062021) slcan0 0A4#0000000000000000
(1660594584.062169) slcan0 0A3#EC39C31EECB5D71E
(1660594584.064390) slcan0 6B2#00003F093F097F5C
(1660594584.069271) slcan0 0AD#FFFF000000000000
(1660594584.069424) slcan0 0AC#0000FFFFADA90A00
(1660594584.094023) slcan0 0C3#000009A0000000
(1660594584.094233) slcan0 0AA#0400090000000001
(1660594584.094321) slcan0 0A8#2200780E0100FDFF
(1660594584.094527) slcan0 0A7#060000000A000600
(1660594584.094774) slcan0 0A3#EB39C31EECB5D71E
(1660594584.094778) slcan0 0A6#0200FDFFFEFF0000
(1660594584.094954) slcan0 0AB#0000000000000000
(1660594584.095120) slcan0 0C0#0000000001000000
(1660594584.095246) slcan0 0C4#3908870532073207
(1660594584.096078) slcan0 0AD#0100000000000000
(1660594584.096267) slcan0 0AC#00000100B6A90A00
(1660594584.096546) slcan0 0AB#0000000000000000
(1660594584.096853) slcan0 0AA#0400090000000001
(1660594584.097010) slcan0 0A8#2200780E02000200
(1660594584.097314) slcan0 0A7#050000000A000300
(1660594584.097565) slcan0 0A6#0000020002000000
(1660594584.097734) slcan0 0A5#FE040000000067FF
(1660594584.098018) slcan0 0A4#0000000000000000
(1660594584.098275) slcan0 0A3#EB39C31EECB5D71E
(1660594584.105024) slcan0 0AD#FFFF000000000000
(1660594584.105337) slcan0 0AE#1000C01915051920
(1660594584.105515) slcan0 0AC#00000000B9A90A00
(1660594584.105793) slcan0 0AB#0000000000000000
(1660594584.106020) slcan0 0AA#0400090000000001
(1660594584.106236) slcan0 0A9#9600FA00FA015105
(1660594584.106524) slcan0 0A8#2200780E00000000
(1660594584.106794) slcan0 0A7#070000000A000600
(1660594584.106946) slcan0 0A6#0000000000000000
(1660594584.107220) slcan0 0A5#FF040000000067FF
(1660594584.107492) slcan0 0A4#0000000000000000
(1660594584.107709) slcan0 0A3#EB39C31EECB5D71E
(1660594584.107944) slcan0 0A2#F0D8F0D81B010000
(1660594584.108151) slcan0 0A1#1001FB07F007F0D8
(1660594584.108397) slcan0 0A0#E100E300E2000F01
(1660594584.112391) slcan0 6B2#00003F093F097F5C
(1660594584.114022) slcan0 0AD#FFFF000000000000
(1660594584.114357) slcan0 0AC#0000FFFFBCA90A00
(1660594584.114642) slcan0 0AB#0000000000000000
(1660594584.114809) slcan0 0AA#0400090000000001
(1660594584.115038) slcan0 0A8#2200780EFBFFFEFF
(1660594584.115350) slcan0 0A7#0500000005000600
(1660594584.115493) slcan0 0A6#FEFFFDFF00000000
(1660594584.115794) slcan0 0A5#FE040000000068FF
(1660594584.116091) slcan0 0A4#0000000000000000
(1660594584.116225) slcan0 0A3#EB39C31EECB5D71E
(1660594584.123123) slcan0 0AD#0000000000000000
(1660594584.123301) slcan0 0AC#00000000BFA90A00
(1660594584.123570) slcan0 0AB#0000000000000000
(1660594584.123851) slcan0 0AA#0400090000000001
(1660594584.124036) slcan0 0A8#2200780EFAFF0000
(1660594584.124284) slcan0 0A7#0700000007000600
(1660594584.124576) slcan0 0A6#FBFF0000FEFF0000
(1660594584.124743) slcan0 0A5#FE040000000068FF
(1660594584.124998) slcan0 0A4#0000000000000000
(1660594584.125267) slcan0 0A3#EC35C31EECB5D71E
(1660594584.128390) slcan0 6B1#B1001F00131112BF
(1660594584.132240) slcan0 0AD#0200000000000000
(1660594584.132525) slcan0 0AC#00000000C2A90A00
(1660594584.132750) slcan0 0AB#0000000000000000
(1660594584.132986) slcan0 0AA#0400090000000001
(1660594584.133263) slcan0 0A8#2200780EFEFF0000
(1660594584.133430) slcan0 0A7#0600000003000100
(1660594584.133750) slcan0 0A6#FEFF000000000000
(1660594584.133975) slcan0 0A5#FD040000000069FF
(1660594584.134122) slcan0 0A4#0000000000000000
(1660594584.134385) slcan0 0A3#EC35C31EECB5D71E
(1660594584.141191) slcan0 0AD#0100000000000000
(1660594584.141378) slcan0 0AC#0000FFFFC5A90A00
(1660594584.141652) slcan0 0AB#0000000000000000
(1660594584.141931) slcan0 0AA#0400090000000001
(1660594584.142080) slcan0 0A8#2200780EFEFFFDFF
(1660594584.142378) slcan0 0A7#0700000005000600
(1660594584.142639) slcan0 0A6#0000FDFFFEFF0000
(1660594584.142795) slcan0 0A5#FF040000000069FF
(1660594584.143069) slcan0 0A4#0000000000000000
(1660594584.143246) slcan0 0A3#EB39C31EECB5D71E
(1660594584.143681) slcan0 0C0#0000000001000000
(1660594584.150077) slcan0 0AD#0100000000000000
(1660594584.150507) slcan0 0AC#00000000C8A90A00
(1660594584.150608) slcan0 0AB#0000000000000000
(1660594584.151066) slcan0 0AA#0400090000000001
(1660594584.151149) slcan0 0A8#2200780EFEFF0000
(1660594584.151283) slcan0 0A7#0600000007000A00
(1660594584.151609) slcan0 0A6#FEFF0000FBFF0000
(1660594584.151890) slcan0 0A5#FE04000000006AFF
(1660594584.152121) slcan0 0A4#0000000000000000
(1660594584.152326) slcan0 0A3#EB39C31EECB5E71E
(1660594584.159615) slcan0 0AD#0100000000000000
(1660594584.159625) slcan0 0AC#00000000CBA90A00
(1660594584.159681) slcan0 0AB#0000000000000000
(1660594584.159905) slcan0 0AA#0400090000000001
(1660594584.160125) slcan0 0A8#2200780EFEFF0000
(1660594584.160507) slcan0 0A7#0500000007000000
(1660594584.160511) slcan0 6B2#00003F093F097F5C
(1660594584.160754) slcan0 0A6#FEFF0000FEFF0000
(1660594584.160769) slcan0 0A5#FE04000000006AFF
(1660594584.161622) slcan0 0A4#0000000000000000
(1660594584.161626) slcan0 0A3#EB39C31EECB5E71E
(1660594584.168408) slcan0 0AD#0100000000000000
(1660594584.168489) slcan0 0AC#0000FFFFCEA90A00
(1660594584.168833) slcan0 0AB#0000000000000000
(1660594584.168843) slcan0 0AA#0400090000000001
(1660594584.169116) slcan0 0A8#2200780EFFFFFDFF
(1660594584.169958) slcan0 0A7#060000000A000A00
(1660594584.169968) slcan0 0A6#FEFFFDFF00000000
(1660594584.194116) slcan0 0C3#000009A0000000
(1660594584.194302) slcan0 0A4#0000000000000000
(1660594584.194405) slcan0 0A3#EC39C31EECB5D71E
(1660594584.194617) slcan0 0A5#FF040000000069FF
(1660594584.194720) slcan0 0A3#EC39C31EECB5D71E
(1660594584.194930) slcan0 0AC#00000100D1A90A00
(1660594584.195024) slcan0 0AD#FFFF000000000000
(1660594584.195249) slcan0 0C0#0000000001000000
(1660594584.195298) slcan0 0C4#3A08860534073407
(1660594584.195455) slcan0 0AD#0000000000000000
(1660594584.195689) slcan0 0AC#0000FFFFD7A90A00
(1660594584.195776) slcan0 0AB#0000000000000000
(1660594584.195917) slcan0 0AA#0400090000000001
(1660594584.196197) slcan0 0A8#2200780EFFFFFDFF
(1660594584.196384) slcan0 0A7#0800000003000A00
(1660594584.196743) slcan0 0A6#0000FDFFFEFF0000
(1660594584.196940) slcan0 0A5#FE040000000068FF
(1660594584.197200) slcan0 0A4#0000000000000000
(1660594584.197358) slcan0 0A3#EC39C31EECB5E71E
(1660594584.204157) slcan0 0AD#FFFF000000000000
(1660594584.204385) slcan0 0AE#1000C01915051920
(1660594584.204716) slcan0 0AC#00000000DAA90A00
(1660594584.205011) slcan0 0AB#0000000000000000
(1660594584.205095) slcan0 0AA#0400090000000001
(1660594584.205417) slcan0 0A9#9600FA00FA015005
(1660594584.205698) slcan0 0A8#2200780EFEFF0000
(1660594584.205833) slcan0 0A7#070000000C000600
(1660594584.206126) slcan0 0A6#FEFF000002000000
(1660594584.206336) slcan0 0A5#FF040000000068FF
(1660594584.206519) slcan0 0A4#0000000000000000
(1660594584.206783) slcan0 0A3#EB35C31EECB5E71E
(1660594584.206967) slcan0 0A2#F0D8F0D818010000
(1660594584.207240) slcan0 0A1#1101FB07F007F0D8
(1660594584.207417) slcan0 0A0#E100E300E2000F01
(1660594584.208383) slcan0 6B2#00003F093F097F5C
(1660594584.213115) slcan0 0AD#0200000000000000
(1660594584.213361) slcan0 0AC#00000000DDA90A00
(1660594584.213637) slcan0 0AB#0000000000000000
(1660594584.213957) slcan0 0AA#0400090000000001
(1660594584.214114) slcan0 0A8#2200780EFEFF0000
(1660594584.214414) slcan0 0A7#0600000007000800
(1660594584.214699) slcan0 0A6#FEFF000000000000
(1660594584.214784) slcan0 0A5#FD040000FFFF68FF
(1660594584.215066) slcan0 0A4#0000000000000000
(1660594584.215327) slcan0 0A3#EB35C31EECB5D71E
(1660594584.222149) slcan0 0AD#FFFF000000000000
(1660594584.222496) slcan0 0AC#00000000E0A90A00
(1660594584.222701) slcan0 0AB#0000000000000000
(1660594584.222900) slcan0 0AA#0400090000000001
(1660594584.223168) slcan0 0A8#2200780E04000000
(1660594584.223488) slcan0 0A7#040000000300FEFF
(1660594584.223532) slcan0 0A6#0300000002000000
(1660594584.223904) slcan0 0A5#FE040000000069FF
(1660594584.224202) slcan0 0A4#0000000000000000
(1660594584.224282) slcan0 0A3#EC39C31EECB5D71E
(1660594584.231260) slcan0 0AD#FFFF000000000000
(1660594584.231419) slcan0 0AC#00000100E3A90A00
(1660594584.231605) slcan0 0AB#0000000000000000
(1660594584.232011) slcan0 0AA#0400090000000001
(1660594584.232143) slcan0 0A8#2200780E02000200
(1660594584.232422) slcan0 0A7#0600000007000600
(1660594584.232562) slcan0 6B1#B1001F00131112BF
(1660594584.232703) slcan0 0A6#00000200FEFF0000
(1660594584.232848) slcan0 0A5#FF040000000069FF
(1660594584.233168) slcan0 0A4#0000000000000000
(1660594584.233361) slcan0 0A3#EC39C31EECB5D71E
(1660594584.240176) slcan0 0AD#FFFF000000000000
(1660594584.240404) slcan0 0AC#00000100E6A90A00
(1660594584.240789) slcan0 0AB#0000000000000000
(1660594584.240896) slcan0 0AA#0400090000000001
(1660594584.241107) slcan0 0A8#2200780E00000200
(1660594584.241392) slcan0 0A7#0900000007000800
(1660594584.241579) slcan0 0A6#FEFF0200FEFF0000
(1660594584.241917) slcan0 0A5#FE040000000067FF
(1660594584.242215) slcan0 0A4#0000000000000000
(1660594584.242268) slcan0 0A3#EC39C31EECB5D71E
(1660594584.243830) slcan0 0C0#0000000001000000
(1660594584.249259) slcan0 0AD#0200000000000000
(1660594584.249386) slcan0 0AC#00000200E9A90A00
(1660594584.249712) slcan0 0AB#0000000000000000
(1660594584.249902) slcan0 0AA#0400090000000001
(1660594584.250108) slcan0 0A8#2200780E08000400
(1660594584.250426) slcan0 0A7#070000000A000300
(1660594584.250681) slcan0 0A6#04000500FBFF0000
(1660594584.250821) slcan0 0A5#FD040000000067FF
(1660594584.251155) slcan0 0A4#0000000000000000
(1660594584.251389) slcan0 0A3#EB39C31EECB5D71E
(1660594584.256347) slcan0 6B2#00003F093F097F5C
(1660594584.258152) slcan0 0AD#0200000000000000
(1660594584.258483) slcan0 0AC#00000000ECA90A00
(1660594584.258750) slcan0 0AB#0000000000000000
(1660594584.258981) slcan0 0AA#0400090000000001
(1660594584.259207) slcan0 0A8#2200780E0400FFFF
(1660594584.259516) slcan0 0A7#0500000007000100
(1660594584.259596) slcan0 0A6#0400000000000000
(1660594584.260030) slcan0 0A5#FF040000000067FF
(1660594584.260190) slcan0 0A4#0000000000000000
(1660594584.260434) slcan0 0A3#EB39C31EECB5E71E
(1660594584.267301) slcan0 0AD#0100000000000000
(1660594584.267472) slcan0 0AC#0000FEFFEFA90A00
(1660594584.267585) slcan0 0AB#0000000000000000
(1660594584.267943) slcan0 0AA#0400090000000001
(1660594584.268207) slcan0 0A8#2200780EFBFFFBFF
(1660594584.268423) slcan0 0A7#060000000E000300
(1660594584.268666) slcan0 0A6#FFFFFAFFFEFF0000
(1660594584.268855) slcan0 0A5#00050000000067FF
(1660594584.269074) slcan0 0A4#0000000000000000
(1660594584.269396) slcan0 0A3#EC39C31EECB5E71E
(1660594584.294140) slcan0 0C3#000009A0000000
(1660594584.294211) slcan0 0AC#00000000F2A90A00
(1660594584.294377) slcan0 0AB#0000000000000000
(1660594584.294537) slcan0 0AC#00000000F8A90A00
(1660594584.294761) slcan0 0A8#2200780E06000100
(1660594584.294832) slcan0 0AA#0400090000000001
(1660594584.294990) slcan0 0AB#0000000000000000
(1660594584.295140) slcan0 0AA#0400090000000001
(1660594584.295291) slcan0 0AD#0300000000000000
(1660594584.295413) slcan0 0AD#0100000000000000
(1660594584.295533) slcan0 0A7#0600000005000600
(1660594584.295763) slcan0 0C0#0000000001000000
(1660594584.295890) slcan0 0A6#0400020000000000
(1660594584.296041) slcan0 0A5#FE040000000066FF
(1660594584.296177) slcan0 0A4#0000000000000000
(1660594584.296483) slcan0 0A3#EC35C31EECB5D71E
(1660594584.303059) slcan0 0AD#FFFF000000000000
(1660594584.303324) slcan0 0AE#1000C01915051920
(1660594584.303582) slcan0 0AC#00000000FBA90A00
(1660594584.303814) slcan0 0AB#0000000000000000
(1660594584.304071) slcan0 0AA#0400090000000001
(1660594584.304327) slcan0 0A9#9600FA00FA015005
(1660594584.304481) slcan0 6B2#00003F093F097F5C
(1660594584.304702) slcan0 0A8#2200780E01000000
(1660594584.304815) slcan0 0A7#0600000005000300
(1660594584.305062) slcan0 0A6#0100000000000000
(1660594584.305255) slcan0 0A5#FF040000000066FF
(1660594584.305531) slcan0 0A4#0000000000000000
(1660594584.305780) slcan0 0A3#EC39C31EECB5D71E
(1660594584.305963) slcan0 0A2#F0D8F0D819010000
(1660594584.306239) slcan0 0A1#1101FB07F007F0D8
(1660594584.306422) slcan0 0A0#E100E300E2000F01
(1660594584.312141) slcan0 0AD#0100000000000000
(1660594584.312430) slcan0 0AC#00000000FEA90A00
(1660594584.312685) slcan0 0AB#0000000000000000
(1660594584.312827) slcan0 0AA#0400090000000001
(1660594584.313079) slcan0 0A8#2200780EFFFF0000
(1660594584.313341) slcan0 0A7#0800000005000800
(1660594584.313523) slcan0 0A6#FFFF000000000000
(1660594584.313801) slcan0 0A5#FF040000000066FF
(1660594584.314125) slcan0 0A4#0000000000000000
(1660594584.314251) slcan0 0A3#EB39C31EECB5D71E
(1660594584.321260) slcan0 0AD#0100000000000000
(1660594584.321428) slcan0 0AC#0000000001AA0A00
(1660594584.321745) slcan0 0AB#0000000000000000
(1660594584.321970) slcan0 0AA#0400090000000001
(1660594584.322200) slcan0 0A8#2200780EFFFF0000
(1660594584.322420) slcan0 0A7#050000000A000600
(1660594584.322831) slcan0 0A6#FFFF000005000000
(1660594584.322989) slcan0 0A5#FE040000000066FF
(1660594584.323181) slcan0 0A4#0000000000000000
(1660594584.323398) slcan0 0A3#EB39C31EECB5D71E
(1660594584.330200) slcan0 0AD#0200000000000000
(1660594584.330398) slcan0 0AC#0000000004AA0A00
(1660594584.330727) slcan0 0AB#0000000000000000
(1660594584.330858) slcan0 0AA#0400090000000001
(1660594584.331213) slcan0 0A8#2200780E01000000
(1660594584.331425) slcan0 0A7#0500000007000800
(1660594584.331704) slcan0 0A6#0100000002000000
(1660594584.331899) slcan0 0A5#FF040000000067FF
(1660594584.332178) slcan0 0A4#0000000000000000
(1660594584.332323) slcan0 0A3#EB39C31EECB5D71E
(1660594584.336327) slcan0 6B1#B1001F00131112BF
(1660594584.339308) slcan0 0AD#0200000000000000
(1660594584.339438) slcan0 0AC#0000000007AA0A00
(1660594584.339614) slcan0 0AB#0000000000000000
(1660594584.339943) slcan0 0AA#0400090000000001
(1660594584.340195) slcan0 0A8#2200780E05000000
(1660594584.340354) slcan0 0A7#0800000003000800
(1660594584.340682) slcan0 0A6#04000000FBFF0000
(1660594584.340870) slcan0 0A5#FD040000000067FF
(1660594584.341190) slcan0 0A4#0000000000000000
(1660594584.341421) slcan0 0A3#EB39C31EECB5D71E
(1660594584.343840) slcan0 0C0#0000000001000000
(1660594584.348139) slcan0 0AD#0100000000000000
(1660594584.348424) slcan0 0AC#0000FFFF0AAA0A00
(1660594584.348699) slcan0 0AB#0000000000000000
(1660594584.348848) slcan0 0AA#0400090000000001
(1660594584.349175) slcan0 0A8#2200780EFAFFFEFF
(1660594584.349421) slcan0 0A7#0600000007000A00
(1660594584.349593) slcan0 0A6#FCFFFEFFFEFF0000
(1660594584.349828) slcan0 0A5#FF040000000067FF
(1660594584.350038) slcan0 0A4#0000000000000000
(1660594584.350212) slcan0 0A3#EB39C31EECB5D71E
(1660594584.352348) slcan0 6B2#00003F093F097F5C
(1660594584.357235) slcan0 0AD#FFFF000000000000
(1660594584.357411) slcan0 0AC#000000000DAA0A00
(1660594584.357592) slcan0 0AB#0000000000000000
(1660594584.357908) slcan0 0AA#0400090000000001
(1660594584.358141) slcan0 0A8#2200780E02000000
(1660594584.358304) slcan0 0A7#070000000A000800
(1660594584.358612) slcan0 0A6#0100000000000000
(1660594584.358866) slcan0 0A5#FE040000000068FF
(1660594584.359233) slcan0 0A4#0000000000000000
(1660594584.359259) slcan0 0A3#EB39C31EECB5D71E
(1660594584.366319) slcan0 0AD#0100000000000000
(1660594584.366377) slcan0 0AC#0000000010AA0A00
(1660594584.366718) slcan0 0AB#0000000000000000
(1660594584.366929) slcan0 0AA#0400090000000001
(1660594584.367119) slcan0 0A8#2200780E05000000
(1660594584.367399) slcan0 0A7#040000000A000300
(1660594584.367676) slcan0 0A6#0400000002000000
(1660594584.367837) slcan0 0A5#FF040000000068FF
(1660594584.368118) slcan0 0A4#0000000000000000
(1660594584.368351) slcan0 0A3#EB39C31EECB5D71E
(1660594584.394279) slcan0 0C3#000009A0000000
(1660594584.394305) slcan0 0AC#0000FFFF13AA0A00
(1660594584.394447) slcan0 0AB#0000000000000000
(1660594584.394608) slcan0 0AA#0400090000000001
(1660594584.394784) slcan0 0A6#FFFFFEFF06000000
(1660594584.394934) slcan0 0A7#070000000A000800
(1660594584.395093) slcan0 0A5#00050000000068FF
(1660594584.395197) slcan0 0A8#2200780E0000FEFF
(1660594584.395366) slcan0 0AD#0100000000000000
(1660594584.395449) slcan0 0A3#EB39C31EECB5D71E
(1660594584.395606) slcan0 0C0#0000000001000000
(1660594584.395762) slcan0 0C4#3908870532073207
(1660594584.400341) slcan0 6B2#00003F093F097F5C
(1660594584.402277) slcan0 0AD#0100000000000000
(1660594584.402300) slcan0 0AE#1000C01915051920
(1660594584.402706) slcan0 0AC#000000001CAA0A00
(1660594584.402917) slcan0 0AB#0000000000000000
(1660594584.403103) slcan0 0AA#0400090000000001
(1660594584.403308) slcan0 0A9#9600FA00FA015005
(1660594584.403730) slcan0 0A8#2200780E02000000
(1660594584.403811) slcan0 0A7#0A0000000A000300
(1660594584.404400) slcan0 0A6#0100000002000000
(1660594584.404417) slcan0 0A5#FE040000000068FF
(1660594584.404570) slcan0 0A4#0000000000000000
(1660594584.404833) slcan0 0A3#EB39C31EECB5D71E
(1660594584.405044) slcan0 0A2#F0D8F0D819010000
(1660594584.405229) slcan0 0A1#1101FB07F007F0D8
(1660594584.405567) slcan0 0A0#E100E300E2000F01
(1660594584.411753) slcan0 0AD#FFFF000000000000
(1660594584.411779) slcan0 0AC#000001001FAA0A00
(1660594584.411783) slcan0 0AB#0000000000000000
(1660594584.411926) slcan0 0AA#0400090000000001
(1660594584.412131) slcan0 0A8#2200780E04000200
(1660594584.412339) slcan0 0A7#0B0000000A000600
(1660594584.412682) slcan0 0A6#0100020003000000
(1660594584.412857) slcan0 0A5#00050000000068FF
(1660594584.413141) slcan0 0A4#0000000000000000
(1660594584.413356) slcan0 0A3#EB39C31EECB5D71E
(1660594584.420164) slcan0 0AD#0200000000000000
(1660594584.420411) slcan0 0AC#0000020022AA0A00
(1660594584.420712) slcan0 0AB#0000000000000000
(1660594584.420878) slcan0 0AA#0400090000000001
(1660594584.421178) slcan0 0A8#2200780E06000500
(1660594584.421343) slcan0 0A7#0500000007000600
(1660594584.421631) slcan0 0A6#0100050002000000
(1660594584.421901) slcan0 0A5#FC040000FFFF69FF
(1660594584.422106) slcan0 0A4#0000000000000000
(1660594584.422352) slcan0 0A3#EB39C31EECB5D71E
(1660594584.429757) slcan0 0AD#0000000000000000
(1660594584.429783) slcan0 0AC#0000000025AA0A00
(1660594584.429786) slcan0 0AB#0000000000000000
(1660594584.429930) slcan0 0AA#0400090000000001
(1660594584.430118) slcan0 0A8#2200780EFFFF0000
(1660594584.430363) slcan0 0A7#0600000007000600
(1660594584.430645) slcan0 0A6#FFFF000000000000
(1660594584.430812) slcan0 0A5#FE040000000068FF
(1660594584.431102) slcan0 0A4#0000000000000000
(1660594584.431275) slcan0 0A3#EC39C31EECB5D71E
(1660594584.438423) slcan0 0AD#0100000000000000
(1660594584.438446) slcan0 0AC#0000000028AA0A00
(1660594584.438661) slcan0 0AB#0000000000000000
(1660594584.438839) slcan0 0AA#0400090000000001
(1660594584.439143) slcan0 0A8#2200780E02000000
(1660594584.439323) slcan0 0A7#0600000005000800
(1660594584.439570) slcan0 0A6#0100000005000000
(1660594584.439867) slcan0 0A5#FE040000000069FF
(1660594584.440156) slcan0 0A4#0000000000000000
(1660594584.440228) slcan0 0A3#EB39C31EECB5D71E
(1660594584.440456) slcan0 6B1#B1001F00131112BF
(1660594584.443824) slcan0 0C0#0000000001000000
(1660594584.447783) slcan0 0AD#0100000000000000
(1660594584.447808) slcan0 0AC#0000FFFF2BAA0A00
(1660594584.447811) slcan0 0AB#0000000000000000
(1660594584.448035) slcan0 0AA#0400090000000001
(1660594584.448197) slcan0 0A8#2200780E0000FEFF
(1660594584.448354) slcan0 6B2#00003F093F097F5C
(1660594584.448506) slcan0 0A7#060000000A000100
(1660594584.448803) slcan0 0A6#0100FEFFFBFF0000
(1660594584.448929) slcan0 0A5#FF040000000069FF
(1660594584.449208) slcan0 0A4#0000000000000000
(1660594584.449429) slcan0 0A3#EB39C31EECB5D71E
(1660594584.456122) slcan0 0AD#0100000000000000
(1660594584.456341) slcan0 0AC#000001002EAA0A00
(1660594584.456613) slcan0 0AB#0000000000000000
(1660594584.456814) slcan0 0AA#0400090000000001
(1660594584.457109) slcan0 0A8#2200780E04000200
(1660594584.457318) slcan0 0A7#0700000003000300
(1660594584.457559) slcan0 0A6#01000200FEFF0000
(1660594584.457823) slcan0 0A5#0005000000006AFF
(1660594584.458101) slcan0 0A4#0000000000000000
(1660594584.458282) slcan0 0A3#EB39C31EECB5D71E
(1660594584.465244) slcan0 0AD#0200000000000000
(1660594584.465430) slcan0 0AC#0000000031AA0A00
(1660594584.465648) slcan0 0AB#0000000000000000
(1660594584.465893) slcan0 0AA#0400090000000001
(1660594584.466181) slcan0 0A8#2200780E05000000
(1660594584.466382) slcan0 0A7#0800000007000600
(1660594584.466630) slcan0 0A6#0400000002000000
(1660594584.466940) slcan0 0A5#0105000000006AFF
(1660594584.467102) slcan0 0A4#0000000000000000
(1660594584.467360) slcan0 0A3#EB39C31EECB5D71E
(1660594584.494438) slcan0 0C3#000009A0000000
(1660594584.494463) slcan0 0AC#0000FFFF34AA0A00
(1660594584.494505) slcan0 0AB#0000000000000000
(1660594584.494510) slcan0 0AA#0400090000000001
(1660594584.494792) slcan0 0A3#EC39C31EECB5D71E
(1660594584.494919) slcan0 0A8#2200780EFDFFFEFF
(1660594584.495102) slcan0 0AD#0000000000000000
(1660594584.495221) slcan0 0C0#0000000001000000
(1660594584.495396) slcan0 0C4#3A08870532073207
(1660594584.496477) slcan0 6B2#00003F093F097F5C
(1660594584.501716) slcan0 0AD#0000000000000000
(1660594584.501743) slcan0 0AE#1000C01915051920
(1660594584.501747) slcan0 0AC#000001003DAA0A00
(1660594584.501910) slcan0 0AB#0000000000000000
(1660594584.502049) slcan0 0AA#0400090000000001
(1660594584.502311) slcan0 0A9#9600FA00FA015105
(1660594584.502689) slcan0 0A8#2200780E00000200
(1660594584.502825) slcan0 0A7#0800000007000800
(1660594584.503117) slcan0 0A6#FFFF020002000000
(1660594584.503352) slcan0 0A5#00050000000068FF
(1660594584.503507) slcan0 0A4#0000000000000000
(1660594584.503829) slcan0 0A3#EC39C31EECB5D71E
(1660594584.503987) slcan0 0A2#F0D8F0D819010000
(1660594584.504280) slcan0 0A1#1101FB07F007F0D8
(1660594584.504566) slcan0 0A0#E100E300E2001001
(1660594584.510585) slcan0 0AD#0100000000000000
(1660594584.510612) slcan0 0AC#0000010040AA0A00
(1660594584.510798) slcan0 0AB#0000000000000000
(1660594584.511042) slcan0 0AA#0400090000000001
(1660594584.511192) slcan0 0A8#2200780E07000200
(1660594584.511425) slcan0 0A7#0600000005000000
(1660594584.511815) slcan0 0A6#0400020000000000
(1660594584.511934) slcan0 0A5#00050000000068FF
(1660594584.512221) slcan0 0A4#0000000000000000
(1660594584.512433) slcan0 0A3#EC39C31EECB5D71E
(1660594584.519709) slcan0 0AD#0200000000000000
(1660594584.519735) slcan0 0AC#0000FFFF43AA0A00
(1660594584.519738) slcan0 0AB#0000000000000000
(1660594584.519922) slcan0 0AA#0400090000000001
(1660594584.520158) slcan0 0A8#2200780EFDFFFEFF
(1660594584.520416) slcan0 0A7#060000000A000100
(1660594584.520579) slcan0 0A6#FFFFFEFFFEFF0000
(1660594584.520869) slcan0 0A5#01050000000068FF
(1660594584.521104) slcan0 0A4#0000000000000000
(1660594584.521301) slcan0 0A3#EB39C31EECB5D71E
(1660594584.528163) slcan0 0AD#0200000000000000
(1660594584.528363) slcan0 0AC#0000000046AA0A00
(1660594584.528649) slcan0 0AB#0000000000000000
(1660594584.528909) slcan0 0AA#0400090000000001
(1660594584.529122) slcan0 0A8#2200780E01000000
(1660594584.529375) slcan0 0A7#070000000A000300
(1660594584.529580) slcan0 0A6#01000000FEFF0000
(1660594584.529815) slcan0 0A5#02050000000068FF
(1660594584.530084) slcan0 0A4#0000000000000000
(1660594584.530342) slcan0 0A3#EB39C31EECB5D71E
(1660594584.537670) slcan0 0AD#0100000000000000
(1660594584.537694) slcan0 0AC#0000010049AA0A00
(1660594584.537697) slcan0 0AB#0000000000000000
(1660594584.537869) slcan0 0AA#0400090000000001
(1660594584.538157) slcan0 0A8#2200780E06000100
(1660594584.538395) slcan0 0A7#080000000C000600
(1660594584.538588) slcan0 0A6#04000200FEFF0000
(1660594584.538874) slcan0 0A5#02050000000068FF
(1660594584.539151) slcan0 0A4#0000000000000000
(1660594584.539294) slcan0 0A3#EB39C31EECB5D71E
(1660594584.543841) slcan0 0C0#0000000001000000
(1660594584.544620) slcan0 6B1#B1001F00131112BF
(1660594584.546507) slcan0 0AD#0100000000000000
(1660594584.546533) slcan0 0AC#000000004CAA0A00
(1660594584.546643) slcan0 0AB#0000000000000000
(1660594584.546949) slcan0 0AA#0400090000000001
(1660594584.547172) slcan0 0A8#2200780E01000000
(1660594584.547368) slcan0 0A7#0700000007000300
(1660594584.547650) slcan0 0A6#0100000000000000
(1660594584.547947) slcan0 0A5#02050000000069FF
(1660594584.548086) slcan0 0A4#0000000000000000
(1660594584.548315) slcan0 0A3#EB39C31EECB5D71E
(1660594584.555122) slcan0 0AD#0100000000000000
(1660594584.555350) slcan0 0AC#000000004FAA0A00
(1660594584.555655) slcan0 0AB#0000000000000000
(1660594584.555797) slcan0 0AA#0400090000000001
(1660594584.556118) slcan0 0A8#2200780E01000000
(1660594584.556406) slcan0 0A7#0700000007000300
(1660594584.556587) slcan0 0A6#0100000002000000
(1660594584.556888) slcan0 0A5#01050000000068FF
(1660594584.557150) slcan0 0A4#0000000000000000
(1660594584.557296) slcan0 0A3#EB39C31EECB5D71E
(1660594584.564082) slcan0 0AD#0000000000000000
(1660594584.564259) slcan0 0AC#0000000052AA0A00
(1660594584.564535) slcan0 0AB#0000000000000000
(1660594584.564805) slcan0 0AA#0400090000000001
(1660594584.565093) slcan0 0A8#2200780EFFFF0000
(1660594584.565268) slcan0 0A7#090000000A000600
(1660594584.565548) slcan0 0A6#FFFF000002000000
(1660594584.565810) slcan0 0A5#02050000000068FF
(1660594584.566028) slcan0 0A4#0000000000000000
(1660594584.566291) slcan0 0A3#EB39C31EECB5E71E
(1660594584.594226) slcan0 0C3#000009A0000000
(1660594584.594238) slcan0 0AC#0000FFFF55AA0A00
(1660594584.594421) slcan0 0AB#0000000000000000
(1660594584.594582) slcan0 0AA#0400090000000001
(1660594584.594771) slcan0 0A3#EC39C31EECB5D71E
(1660594584.594909) slcan0 0A8#2200780EFCFFFEFF
(1660594584.595064) slcan0 0AD#0100000000000000
(1660594584.595231) slcan0 0C0#0000000001000000
(1660594584.595285) slcan0 0C4#3708860533073307
(1660594584.595457) slcan0 6B2#00003F093F097F5C
(1660594584.600359) slcan0 0AD#0100000000000000
(1660594584.600375) slcan0 0AE#1000C01915051920
(1660594584.600599) slcan0 0AC#0000FFFF5EAA0A00
(1660594584.600897) slcan0 0AB#0000000000000000
(1660594584.601039) slcan0 0AA#0400090000000001
(1660594584.601528) slcan0 0A9#9600FA00FA015205
(1660594584.601608) slcan0 0A8#2200780E0000FEFF
(1660594584.601813) slcan0 0A7#0700000005000A00
(1660594584.602115) slcan0 0A6#0100FEFF02000000
(1660594584.602331) slcan0 0A5#02050000000067FF
(1660594584.602493) slcan0 0A4#0000000000000000
(1660594584.602802) slcan0 0A3#EB39C31EECB5E71E
(1660594584.602959) slcan0 0A2#F0D8F0D81B010000
(1660594584.603429) slcan0 0A1#1001FB07F007F0D8
(1660594584.603603) slcan0 0A0#E100E300E2001001
(1660594584.609327) slcan0 0AD#0000000000000000
(1660594584.609340) slcan0 0AC#0000FFFF61AA0A00
(1660594584.609668) slcan0 0AB#0000000000000000
(1660594584.609895) slcan0 0AA#0400090000000001
(1660594584.610026) slcan0 0A8#2200780E0000FEFF
(1660594584.610275) slcan0 0A7#0600000005000300
(1660594584.610629) slcan0 0A6#0100FEFF00000000
(1660594584.610821) slcan0 0A5#02050000000067FF
(1660594584.611122) slcan0 0A4#0000000000000000
(1660594584.611340) slcan0 0A3#EB39C31EECB5D71E
(1660594584.618115) slcan0 0AD#FFFF000000000000
(1660594584.618397) slcan0 0AC#0000000064AA0A00
(1660594584.618676) slcan0 0AB#0000000000000000
(1660594584.618833) slcan0 0AA#0400090000000001
(1660594584.619157) slcan0 0A8#2200780EFFFF0000
(1660594584.619408) slcan0 0A7#060000000C000300
(1660594584.619565) slcan0 0A6#FFFF0000FEFF0000
(1660594584.619858) slcan0 0A5#02050000000066FF
(1660594584.620142) slcan0 0A4#0000000000000000
(1660594584.620289) slcan0 0A3#EB39C31EECB5D71E
(1660594584.627222) slcan0 0AD#FFFF000000000000
(1660594584.627349) slcan0 0AC#0000000067AA0A00
(1660594584.627665) slcan0 0AB#0000000000000000
(1660594584.627862) slcan0 0AA#0400090000000001
(1660594584.628235) slcan0 0A8#2200780EFFFF0000
(1660594584.628355) slcan0 0A7#080000000C000600
(1660594584.628636) slcan0 0A6#FFFF000002000000
(1660594584.628905) slcan0 0A5#02050000000066FF
(1660594584.629111) slcan0 0A4#0000000000000000
(1660594584.629367) slcan0 0A3#EB39C31EECB5E71E
(1660594584.636526) slcan0 0AD#0000000000000000
(1660594584.636551) slcan0 0AC#0000FFFF6AAA0A00
(1660594584.636802) slcan0 0AB#0000000000000000
(1660594584.637063) slcan0 0AA#0400090000000001
(1660594584.637319) slcan0 0A8#2200780EFEFFFEFF
(1660594584.637489) slcan0 0A7#0700000007000600
(1660594584.637792) slcan0 0A6#FFFFFEFFFEFF0000
(1660594584.638097) slcan0 0A5#01050000000066FF
(1660594584.638222) slcan0 0A4#0000000000000000
(1660594584.638496) slcan0 0A3#EB39C31EECB5E71E
(1660594584.640545) slcan0 6B2#00003F093F097F5C
(1660594584.643731) slcan0 0C0#0000000001000000
(1660594584.645381) slcan0 0AD#0400000000000000
(1660594584.645405) slcan0 0AC#000000006DAA0A00
(1660594584.645725) slcan0 0AB#0000000000000000
(1660594584.646002) slcan0 0AA#0400090000000001
(1660594584.646161) slcan0 0A8#2200780E02000000
(1660594584.646442) slcan0 0A7#090000000A000800
(1660594584.646726) slcan0 0A6#0100000002000000
(1660594584.646901) slcan0 0A5#00050000000067FF
(1660594584.647179) slcan0 0A4#0000000000000000
(1660594584.647313) slcan0 0A3#EB39C31EECB5E71E
(1660594584.648396) slcan0 6B1#B1001F00131112BF
(1660594584.654407) slcan0 0AD#0100000000000000
(1660594584.654433) slcan0 0AC#0000010070AA0A00
(1660594584.654676) slcan0 0AB#0000000000000000
(1660594584.654938) slcan0 0AA#0400090000000001
(1660594584.655177) slcan0 0A8#2200780E00000200
(1660594584.655324) slcan0 0A7#0400000007000300
(1660594584.655665) slcan0 0A6#FFFF020002000000
(1660594584.655858) slcan0 0A5#02050000000067FF
(1660594584.656171) slcan0 0A4#0000000000000000
(1660594584.656328) slcan0 0A3#EB39C31EECB5E71E
(1660594584.663277) slcan0 0AD#0100000000000000
(1660594584.663425) slcan0 0AC#0000FEFF73AA0A00
(1660594584.663716) slcan0 0AB#0000000000000000
(1660594584.663978) slcan0 0AA#0400090000000001
(1660594584.664152) slcan0 0A8#2200780EFBFFFBFF
(1660594584.664438) slcan0 0A7#0A0000000A000300
(1660594584.664706) slcan0 0A6#FFFFFBFF00000000
(1660594584.664877) slcan0 0A5#01050000000068FF
(1660594584.665168) slcan0 0A4#0000000000000000
(1660594584.665426) slcan0 0A3#EC39C31EECB5D71E
(1660594584.694500) slcan0 0C3#000009A0000000
(1660594584.694526) slcan0 0AC#0000010076AA0A00
(1660594584.694625) slcan0 0AB#0000000000000000
(1660594584.694644) slcan0 0AA#0400090000000001
(1660594584.694835) slcan0 0A3#EB39C31EECB5D71E
(1660594584.694971) slcan0 0A8#2200780E06000500
(1660594584.695139) slcan0 0AD#0000000000000000
(1660594584.695296) slcan0 0C0#0000000001000000
(1660594584.695414) slcan0 6B2#00003F093F097F5C
(1660594584.699307) slcan0 0AD#0100000000000000
(1660594584.699439) slcan0 0AE#1000C01915051920
(1660594584.699746) slcan0 0AC#000001007FAA0A00
(1660594584.700069) slcan0 0AB#0000000000000000
(1660594584.700253) slcan0 0AA#0400090000000001
(1660594584.700505) slcan0 0A9#9600FA00FA015405
(1660594584.700704) slcan0 0A8#2200780E04000200
(1660594584.700966) slcan0 0A7#0A00000007000300
(1660594584.701246) slcan0 0A6#01000200F8FF0000
(1660594584.701373) slcan0 0A5#01050000000068FF
(1660594584.701651) slcan0 0A4#0000000000000000
(1660594584.701909) slcan0 0A3#EB39C31EECB5D71E
(1660594584.702101) slcan0 0A2#F0D8F0D81B010000
(1660594584.702540) slcan0 0A1#1101FB07F007F0D8
(1660594584.702643) slcan0 0A0#E100E300E2001001
(1660594584.708241) slcan0 0AD#0100000000000000
(1660594584.708430) slcan0 0AC#0000FEFF82AA0A00
(1660594584.708716) slcan0 0AB#0000000000000000
(1660594584.708992) slcan0 0AA#0400090000000001
(1660594584.709153) slcan0 0A8#2200780EFBFFFBFF
(1660594584.709438) slcan0 0A7#060000000C000300
(1660594584.709693) slcan0 0A6#FFFFFBFFFEFF0000
(1660594584.709898) slcan0 0A5#00050000000068FF
(1660594584.710148) slcan0 0A4#0000000000000000
(1660594584.710315) slcan0 0A3#EB39C31EECB5D71E
(1660594584.717285) slcan0 0AD#0100000000000000
(1660594584.717471) slcan0 0AC#0000000085AA0A00
(1660594584.717679) slcan0 0AB#0000000000000000
(1660594584.717866) slcan0 0AA#0400090000000001
(1660594584.718261) slcan0 0A8#2200780E02000000
(1660594584.718380) slcan0 0A7#050000000A000100
(1660594584.718660) slcan0 0A6#01000000FEFF0000
(1660594584.718950) slcan0 0A5#01050000000068FF
(1660594584.719127) slcan0 0A4#0000000000000000
(1660594584.719373) slcan0 0A3#EB39C31EEBB5D71E
(1660594584.726587) slcan0 0AD#0100000000000000
(1660594584.726613) slcan0 0AC#0000000088AA0A00
(1660594584.726671) slcan0 0AB#0000000000000000
(1660594584.727094) slcan0 0AA#0400090000000001
(1660594584.727120) slcan0 0A8#2200780E02000000
(1660594584.727469) slcan0 0A7#0700000007000600
(1660594584.727666) slcan0 0A6#01000000FEFF0000
(1660594584.727907) slcan0 0A5#01050000000069FF
(1660594584.728194) slcan0 0A4#0000000000000000
(1660594584.728356) slcan0 0A3#EC39C31EEBB5D71E
(1660594584.735381) slcan0 0AD#FFFF000000000000
(1660594584.735501) slcan0 0AC#000000008BAA0A00
(1660594584.735603) slcan0 0AB#0000000000000000
(1660594584.735981) slcan0 0AA#0400090000000001
(1660594584.736198) slcan0 0A8#2200780E02000000
(1660594584.736380) slcan0 0A7#0700000007000300
(1660594584.736546) slcan0 6B2#00003F093F097F5C
(1660594584.736690) slcan0 0A6#01000000FEFF0000
(1660594584.736944) slcan0 0A5#01050000000068FF
(1660594584.737211) slcan0 0A4#0000000000000000
(1660594584.737370) slcan0 0A3#EC39C31EECB5D71E
(1660594584.743787) slcan0 0C0#0000000001000000
(1660594584.744559) slcan0 0AD#FFFF000000000000
(1660594584.744577) slcan0 0AC#000000008EAA0A00
(1660594584.744783) slcan0 0AB#0000000000000000
(1660594584.745077) slcan0 0AA#0400090000000001
(1660594584.745357) slcan0 0A8#2200780EFFFF0000
(1660594584.745523) slcan0 0A7#0700000005000300
(1660594584.745800) slcan0 0A6#FFFF000000000000
(1660594584.746077) slcan0 0A5#01050000000069FF
(1660594584.746196) slcan0 0A4#0000000000000000
(1660594584.746505) slcan0 0A3#EC39C31EECB5D71E
(1660594584.752613) slcan0 6B1#B1001F00131112BF
(1660594584.753737) slcan0 0AD#0000000000000000
(1660594584.753763) slcan0 0AC#0000FFFF91AA0A00
(1660594584.753766) slcan0 0AB#0000000000000000
(1660594584.753912) slcan0 0AA#0400090000000001
(1660594584.754196) slcan0 0A8#2200780E0000FEFF
(1660594584.754484) slcan0 0A7#060000000C000300
(1660594584.754648) slcan0 0A6#0100FEFF00000000
(1660594584.754934) slcan0 0A5#01050000000069FF
(1660594584.755212) slcan0 0A4#0000000000000000
(1660594584.755378) slcan0 0A3#EC39C31EECB5E71E
(1660594584.762611) slcan0 0AD#0000000000000000
(1660594584.762636) slcan0 0AC#0000000094AA0A00
(1660594584.762788) slcan0 0AB#0000000000000000
(1660594584.763045) slcan0 0AA#0400090000000001
(1660594584.763246) slcan0 0A8#2200780EFFFF0000
(1660594584.763483) slcan0 0A7#090000000C000300
(1660594584.763792) slcan0 0A6#FFFF000005000000
(1660594584.763973) slcan0 0A5#02050000000068FF
(1660594584.764248) slcan0 0A4#0000000000000000
(1660594584.764514) slcan0 0A3#EB39C31EECB5E71E
(1660594584.794305) slcan0 0C3#000009A0000000
(1660594584.794329) slcan0 0AC#0000000097AA0A00
(1660594584.794430) slcan0 0AB#0000000000000000
(1660594584.794582) slcan0 0AA#0400090000000001
(1660594584.794788) slcan0 0A3#EB39C31EECB5D71E
(1660594584.794804) slcan0 0A8#2200780EFFFF0000
(1660594584.795056) slcan0 0AD#0100000000000000
(1660594584.795170) slcan0 0C0#0000000001000000
(1660594584.795285) slcan0 0C4#3708890534073407
(1660594584.795436) slcan0 6B2#00003F093F097F5C
(1660594584.798185) slcan0 0AD#FFFF000000000000
(1660594584.798385) slcan0 0AE#1000C01915051920
(1660594584.798582) slcan0 0AC#0000FEFFA0AA0A00
(1660594584.799139) slcan0 0AB#0000000000000000
(1660594584.799156) slcan0 0AA#0400090000000001
(1660594584.799431) slcan0 0A9#9700FA00FA015105
(1660594584.799591) slcan0 0A8#2200780EFBFFFBFF
(1660594584.799861) slcan0 0A7#060000000C000300
(1660594584.800156) slcan0 0A6#FFFFFBFF05000000
(1660594584.800418) slcan0 0A5#00050000000068FF
(1660594584.800594) slcan0 0A4#0000000000000000
(1660594584.800873) slcan0 0A3#EB39C31EECB5D71E
(1660594584.801033) slcan0 0A2#F0D8F0D81B010000
(1660594584.801330) slcan0 0A1#1101FB07F007F0D8
(1660594584.801507) slcan0 0A0#E100E300E2000F01
(1660594584.807351) slcan0 0AD#0000000000000000
(1660594584.807417) slcan0 0AC#00000100A3AA0A00
(1660594584.807621) slcan0 0AB#0000000000000000
(1660594584.807904) slcan0 0AA#0400090000000001
(1660594584.808162) slcan0 0A8#2200780E04000200
(1660594584.808447) slcan0 0A7#0700000005000600
(1660594584.808608) slcan0 0A6#01000200FEFF0000
(1660594584.808923) slcan0 0A5#01050000000067FF
(1660594584.809183) slcan0 0A4#0000000000000000
(1660594584.809347) slcan0 0A3#EB39C31EECB5E71E
(1660594584.816251) slcan0 0AD#0000000000000000
(1660594584.816442) slcan0 0AC#00000000A6AA0A00
(1660594584.816565) slcan0 0AB#0000000000000000
(1660594584.816856) slcan0 0AA#0400090000000001
(1660594584.817156) slcan0 0A8#2200780E05000000
(1660594584.817327) slcan0 0A7#0500000005000300
(1660594584.817591) slcan0 0A6#04000000FBFF0000
(1660594584.817900) slcan0 0A5#01050000000067FF
(1660594584.818066) slcan0 0A4#0000000000000000
(1660594584.818352) slcan0 0A3#EB39C31EECB5E71E
(1660594584.825308) slcan0 0AD#0100000000000000
(1660594584.825465) slcan0 0AC#00000100A9AA0A00
(1660594584.825747) slcan0 0AB#0000000000000000
(1660594584.825926) slcan0 0AA#0400090000000001
(1660594584.826218) slcan0 0A8#2200780E04000200
(1660594584.826480) slcan0 0A7#0600000005000600
(1660594584.826687) slcan0 0A6#01000200FEFF0000
(1660594584.826990) slcan0 0A5#01050000000067FF
(1660594584.827262) slcan0 0A4#0000000000000000
(1660594584.827417) slcan0 0A3#EC39C31EECB5D71E
(1660594584.832565) slcan0 6B2#00003F093F097F5C
(1660594584.834295) slcan0 0AD#0100000000000000
(1660594584.834455) slcan0 0AC#00000000ACAA0A00
(1660594584.834619) slcan0 0AB#0000000000000000
(1660594584.834940) slcan0 0AA#0400090000000001
(1660594584.835198) slcan0 0A8#2200780E05000000
(1660594584.835354) slcan0 0A7#0600000005000800
(1660594584.835599) slcan0 0A6#0400000005000000
(1660594584.835918) slcan0 0A5#FF040000000068FF
(1660594584.836203) slcan0 0A4#0000000000000000
(1660594584.836361) slcan0 0A3#EC39C31EECB5D71E
(1660594584.843341) slcan0 0AD#0100000000000000
(1660594584.843366) slcan0 0AC#00000100AFAA0A00
(1660594584.843660) slcan0 0AB#0000000000000000
(1660594584.843790) slcan0 0C0#0000000001000000
(1660594584.843976) slcan0 0AA#0400090000000001
(1660594584.844131) slcan0 0A8#2200780E00000200
(1660594584.844442) slcan0 0A7#080000000A000D00
(1660594584.844646) slcan0 0A6#FFFF020000000000
(1660594584.844874) slcan0 0A5#01050000000068FF
(1660594584.845145) slcan0 0A4#0000000000000000
(1660594584.845417) slcan0 0A3#EB39C31EECB5D71E
(1660594584.852272) slcan0 0AD#0100000000000000
(1660594584.852445) slcan0 0AC#00000000B2AA0A00
(1660594584.852623) slcan0 0AB#0000000000000000
(1660594584.852936) slcan0 0AA#0400090000000001
(1660594584.853194) slcan0 0A8#2200780EFFFF0000
(1660594584.853349) slcan0 0A7#0700000007000600
(1660594584.853666) slcan0 0A6#FFFF000003000000
(1660594584.853918) slcan0 0A5#00050000000068FF
(1660594584.854197) slcan0 0A4#0000000000000000
(1660594584.854355) slcan0 0A3#EB39C31EECB5D71E
(1660594584.856475) slcan0 6B1#B1001F00131112BF
(1660594584.861223) slcan0 0AD#0000000000000000
(1660594584.861387) slcan0 0AC#00000000B5AA0A00
(1660594584.861661) slcan0 0AB#0000000000000000
(1660594584.861968) slcan0 0AA#0400090000000001
(1660594584.862122) slcan0 0A8#2200780EFFFF0000
(1660594584.862427) slcan0 0A7#050000000C000000
(1660594584.862655) slcan0 0A6#FFFF000000000000
(1660594584.862896) slcan0 0A5#00050000000068FF
(1660594584.863121) slcan0 0A4#0000000000000000
(1660594584.863443) slcan0 0A3#EB39C31EECB5D71E
(1660594584.894243) slcan0 0C3#000009A0000000
(1660594584.894270) slcan0 0AC#00000000B8AA0A00
(1660594584.894437) slcan0 0AB#0000000000000000
(1660594584.894581) slcan0 0AA#0400090000000001
(1660594584.894687) slcan0 0A3#EB39C31EECB5D71E
(1660594584.894914) slcan0 0A8#2200780EF9FFFEFF
(1660594584.895085) slcan0 0AD#0200000000000000
(1660594584.895212) slcan0 0C0#0000000001000000
(1660594584.895359) slcan0 0C4#3708850532073207
(1660594584.895487) slcan0 6B2#00003F093F097F5C
(1660594584.897169) slcan0 0AD#0100000000000000
(1660594584.897396) slcan0 0AE#1000C01915051920
(1660594584.897669) slcan0 0AC#00000000C1AA0A00
(1660594584.897993) slcan0 0AB#0000000000000000
(1660594584.898120) slcan0 0AA#0400090000000001
(1660594584.898417) slcan0 0A9#9700FA00FA015105
(1660594584.898671) slcan0 0A8#2200780EFBFF0000
(1660594584.898898) slcan0 0A7#040000000A000800
(1660594584.899147) slcan0 0A6#FBFF000000000000
(1660594584.899401) slcan0 0A5#FF040000000069FF
(1660594584.899545) slcan0 0A4#0000000000000000
(1660594584.899867) slcan0 0A3#EB39C31EECB5D71E
(1660594584.900057) slcan0 0A2#F0D8F0D81B010000
(1660594584.900332) slcan0 0A1#1001FB07F007F0D8
(1660594584.900466) slcan0 0A0#E100E300E2000F01
(1660594584.906213) slcan0 0AD#0100000000000000
(1660594584.906408) slcan0 0AC#0000FEFFC4AA0A00
(1660594584.906681) slcan0 0AB#0000000000000000
(1660594584.906867) slcan0 0AA#0400090000000001
(1660594584.907139) slcan0 0A8#2200780EFBFFFBFF
(1660594584.907414) slcan0 0A7#0600000005000800
(1660594584.907605) slcan0 0A6#FEFFFBFF00000000
(1660594584.907912) slcan0 0A5#01050000000069FF
(1660594584.908167) slcan0 0A4#0000000000000000
(1660594584.908317) slcan0 0A3#EB39C31EECB5D71E
(1660594584.915746) slcan0 0AD#FFFF000000000000
(1660594584.915770) slcan0 0AC#00000100C7AA0A00
(1660594584.915774) slcan0 0AB#0000000000000000
(1660594584.915913) slcan0 0AA#0400090000000001
(1660594584.916205) slcan0 0A8#2200780E03000200
(1660594584.916401) slcan0 0A7#050000000A000100
(1660594584.916646) slcan0 0A6#0100020000000000
(1660594584.916932) slcan0 0A5#00050000000068FF
(1660594584.917091) slcan0 0A4#0000000000000000
(1660594584.917371) slcan0 0A3#EB39C31EECB5D71E
(1660594584.924429) slcan0 0AD#FFFF000000000000
(1660594584.924456) slcan0 0AC#00000000CAAA0A00
(1660594584.924704) slcan0 0AB#0000000000000000
(1660594584.924868) slcan0 0AA#0400090000000001
(1660594584.925153) slcan0 0A8#2200780EFBFF0000
(1660594584.925360) slcan0 0A7#0500000007000D00
(1660594584.925629) slcan0 0A6#FCFF000000000000
(1660594584.925791) slcan0 0A5#01050000000068FF
(1660594584.926428) slcan0 0A4#0000000000000000
(1660594584.926445) slcan0 0A3#EB39C31EECB5D71E
(1660594584.928610) slcan0 6B2#00003F093F097F5C
(1660594584.933752) slcan0 0AD#0100000000000000
(1660594584.933778) slcan0 0AC#00000100CDAA0A00
(1660594584.933781) slcan0 0AB#0000000000000000
(1660594584.933914) slcan0 0AA#0400090000000001
(1660594584.934215) slcan0 0A8#2200780E03000200
(1660594584.934382) slcan0 0A7#0600000005000600
(1660594584.934664) slcan0 0A6#01000200FBFF0000
(1660594584.934935) slcan0 0A5#FF040000000069FF
(1660594584.935098) slcan0 0A4#0000000000000000
(1660594584.935369) slcan0 0A3#EC39C31EECB5D71E
(1660594584.942144) slcan0 0AD#0100000000000000
(1660594584.942410) slcan0 0AC#00000000D0AA0A00
(1660594584.942694) slcan0 0AB#0000000000000000
(1660594584.942955) slcan0 0AA#0400090000000001
(1660594584.943162) slcan0 0A8#2200780EFBFF0000
(1660594584.943405) slcan0 0A7#0500000007000300
(1660594584.943694) slcan0 0A6#FBFF0000FEFF0000
(1660594584.943790) slcan0 0C0#0000000001000000
(1660594584.943980) slcan0 0A5#01050000000067FF
(1660594584.944123) slcan0 0A4#0000000000000000
(1660594584.944281) slcan0 0A3#EC39C31EECB5D71E
(1660594584.951305) slcan0 0AD#0100000000000000
(1660594584.951549) slcan0 0AC#00000000D3AA0A00
(1660594584.951775) slcan0 0AB#0000000000000000
(1660594584.952008) slcan0 0AA#0400090000000001
(1660594584.952286) slcan0 0A8#2200780E04000000
(1660594584.952452) slcan0 0A7#0700000005000600
(1660594584.952788) slcan0 0A6#0300000000000000
(1660594584.953004) slcan0 0A5#00050000000068FF
(1660594584.953168) slcan0 0A4#0000000000000000
(1660594584.953451) slcan0 0A3#EB39C31EECB5D71E
(1660594584.960440) slcan0 0AD#0000000000000000
(1660594584.960465) slcan0 0AC#00000000D6AA0A00
(1660594584.960566) slcan0 6B1#B1001F00131112BF
(1660594584.960791) slcan0 0AB#0000000000000000
(1660594584.960956) slcan0 0AA#0400090000000001
(1660594584.961115) slcan0 0A8#2200780EFEFF0000
(1660594584.961402) slcan0 0A7#050000000A000600
(1660594584.961692) slcan0 0A6#FEFF000000000000
(1660594584.961853) slcan0 0A5#01050000000067FF
(1660594584.962146) slcan0 0A4#0000000000000000
(1660594584.962311) slcan0 0A3#EB39C31EECB5D71E
(1660594584.969723) slcan0 0AD#0200000000000000
(1660594584.969748) slcan0 0AC#00000000D9AA0A00
(1660594584.969751) slcan0 0AB#0000000000000000
(1660594584.994181) slcan0 0C3#000009A0000000
(1660594584.994296) slcan0 0A8#2200780E01000000
(1660594584.994451) slcan0 0A7#070000000A000A00
(1660594584.994611) slcan0 0A6#00000000FEFF0000
(1660594584.994774) slcan0 0A3#EB39C31EECB5D71E
(1660594584.994908) slcan0 0A5#01050000000067FF
(1660594584.995079) slcan0 0AA#0400090000000001
(1660594584.995124) slcan0 0C0#0000000001000000
(1660594584.995276) slcan0 6B2#00003F093F097F5C
(1660594584.996108) slcan0 0AD#0000000000000000
(1660594584.996381) slcan0 0AE#1000C01915051920
(1660594584.996680) slcan0 0AC#0000FFFFE2AA0A00
(1660594584.996947) slcan0 0AB#0000000000000000
(1660594584.997105) slcan0 0AA#0400090000000001
(1660594584.997411) slcan0 0A9#9700FA00FA015305
(1660594584.997572) slcan0 0A8#2200780EF8FFFEFF
(1660594584.997789) slcan0 0A7#0500000007000A00
(1660594584.998157) slcan0 0A6#FBFFFDFF07000000
(1660594584.998317) slcan0 0A5#00050000000068FF
(1660594584.998611) slcan0 0A4#0000000000000000
(1660594584.998771) slcan0 0A3#EB39C31EECB5D71E
(1660594584.999023) slcan0 0A2#F0D8F0D819010000
(1660594584.999473) slcan0 0A1#1001FB07F007F0D8
(1660594584.999492) slcan0 0A0#E100E300E2000F01
(1660594585.005350) slcan0 0AD#0100000000000000
(1660594585.005377) slcan0 0AC#0000FFFFE5AA0A00
(1660594585.005684) slcan0 0AB#0000000000000000
(1660594585.005975) slcan0 0AA#0400090000000001
(1660594585.006120) slcan0 0A8#2200780EF8FFFEFF
(1660594585.006403) slcan0 0A7#0700000007000A00
(1660594585.006699) slcan0 0A6#FBFFFDFFFFFF0000
(1660594585.006844) slcan0 0A5#01050000000068FF
(1660594585.007185) slcan0 0A4#0000000000000000
(1660594585.007316) slcan0 0A3#EB35C31EECB5D71E
(1660594585.014450) slcan0 0AD#0100000000000000
(1660594585.014559) slcan0 0AC#00000000E8AA0A00
(1660594585.014791) slcan0 0AB#0000000000000000
(1660594585.014974) slcan0 0AA#0400090000000001
(1660594585.015267) slcan0 0A8#2200780E00000000
(1660594585.015435) slcan0 0A7#0900000007000100
(1660594585.015760) slcan0 0A6#0000000001000000
(1660594585.015970) slcan0 0A5#00050000000068FF
(1660594585.016089) slcan0 0A4#0000000000000000
(1660594585.016340) slcan0 0A3#EC35C31EECB5D71E
(1660594585.023089) slcan0 0AD#0000000000000000
(1660594585.023357) slcan0 0AC#00000000EBAA0A00
(1660594585.023634) slcan0 0AB#0000000000000000
(1660594585.023787) slcan0 0AA#0400090000000001
(1660594585.024078) slcan0 0A8#2200780E00000000
(1660594585.024417) slcan0 0A7#0500000007000300
(1660594585.024453) slcan0 6B2#00003F093F097F5C
(1660594585.024797) slcan0 0A6#0000000003000000
(1660594585.024816) slcan0 0A5#01050000000069FF
(1660594585.025165) slcan0 0A4#0000000000000000
(1660594585.025307) slcan0 0A3#EC39C31EECB5D71E
(1660594585.032272) slcan0 0AD#FFFF000000000000
(1660594585.032431) slcan0 0AC#0000FFFFEEAA0A00
(1660594585.032624) slcan0 0AB#0000000000000000
(1660594585.032789) slcan0 0AA#0400090000000001
(1660594585.033343) slcan0 0A8#2200780EFBFFFEFF
(1660594585.033361) slcan0 0A7#0600000007000300
(1660594585.033627) slcan0 0A6#FEFFFDFFFEFF0000
(1660594585.033788) slcan0 0A5#01050000000068FF
(1660594585.034104) slcan0 0A4#0000000000000000
(1660594585.034338) slcan0 0A3#EB39C31EECB5D71E
(1660594585.041218) slcan0 0AD#0000000000000000
(1660594585.041376) slcan0 0AC#00000000F1AA0A00
(1660594585.041668) slcan0 0AB#0000000000000000
(1660594585.041939) slcan0 0AA#0400090000000001
(1660594585.042103) slcan0 0A8#2200780E05000100
(1660594585.042401) slcan0 0A7#0600000005000800
(1660594585.042687) slcan0 0A6#0300020003000000
(1660594585.042808) slcan0 0A5#00050000000069FF
(1660594585.043154) slcan0 0A4#0000000000000000
(1660594585.043172) slcan0 0A3#EB39C31EECB5D71E
(1660594585.043724) slcan0 0C0#0000000001000000
(1660594585.050334) slcan0 0AD#0200000000000000
(1660594585.050356) slcan0 0AC#0000FFFFF4AA0A00
(1660594585.050583) slcan0 0AB#0000000000000000
(1660594585.050774) slcan0 0AA#0400090000000001
(1660594585.051305) slcan0 0A8#2200780EFBFFFEFF
(1660594585.051319) slcan0 0A7#0600000005000800
(1660594585.051608) slcan0 0A6#FEFFFDFF00000000
(1660594585.051774) slcan0 0A5#01050000000069FF
(1660594585.052118) slcan0 0A4#0000000000000000
(1660594585.052356) slcan0 0A3#EC39C31EECB5D71E
(1660594585.059162) slcan0 0AD#FFFF000000000000
(1660594585.059374) slcan0 0AC#00000000F7AA0A00
(1660594585.059680) slcan0 0AB#0000000000000000
(1660594585.059921) slcan0 0AA#0400090000000001
(1660594585.060107) slcan0 0A8#2200780E0300FFFF
(1660594585.060340) slcan0 0A7#0600000007000300
(1660594585.060624) slcan0 0A6#03000000FEFF0000
(1660594585.060766) slcan0 0A5#01050000000068FF
(1660594585.061072) slcan0 0A4#0000000000000000
(1660594585.061237) slcan0 0A3#EC39C31EECB5D71E
(1660594585.064432) slcan0 6B1#B1001F00131112BF
(1660594585.068188) slcan0 0AD#0100000000000000
(1660594585.068416) slcan0 0AC#00000000FAAA0A00
(1660594585.068699) slcan0 0AB#0000000000000000
(1660594585.068840) slcan0 0AA#0400090000000001
(1660594585.069185) slcan0 0A8#2200780EFEFF0000
(1660594585.069442) slcan0 0A7#0400000003000A00
(1660594585.069608) slcan0 0A6#FEFF0000FBFF0000
(1660594585.094158) slcan0 0C3#000009A0000000
(1660594585.094290) slcan0 0A4#0000000000000000
(1660594585.094414) slcan0 0A3#EC39C31EECB5D71E
(1660594585.094627) slcan0 0A5#00050000000068FF
(1660594585.094798) slcan0 0A3#EC39C31EECB5D71E
(1660594585.094817) slcan0 0AC#0000FFFFFDAA0A00
(1660594585.095025) slcan0 0AD#0100000000000000
(1660594585.095172) slcan0 0C0#0000000001000000
(1660594585.095266) slcan0 0C4#3708860533073307
(1660594585.095421) slcan0 6B2#00003F093F097F5C
(1660594585.095688) slcan0 0AE#1000C01915051920
(1660594585.095745) slcan0 0AC#0000000003AB0A00
(1660594585.095954) slcan0 0AB#0000000000000000
(1660594585.096113) slcan0 0AA#0400090000000001
(1660594585.096293) slcan0 0A9#9600FA00FA015105
(1660594585.096589) slcan0 0A8#2200780E0300FFFF
(1660594585.096803) slcan0 0A7#0600000005000100
(1660594585.097073) slcan0 0A6#0300000000000000
(1660594585.097369) slcan0 0A5#01050000000068FF
(1660594585.097626) slcan0 0A4#0000000000000000
(1660594585.097805) slcan0 0A3#EC39C31EECB5D71E
(1660594585.098001) slcan0 0A2#F0D8F0D819010000
(1660594585.098281) slcan0 0A1#1101FB07F007F0D8
(1660594585.098458) slcan0 0A0#E100E300E2000F01
(1660594585.104166) slcan0 0AD#0000000000000000
(1660594585.104448) slcan0 0AC#0000000006AB0A00
(1660594585.104608) slcan0 0AB#0000000000000000
(1660594585.104872) slcan0 0AA#0400090000000001
(1660594585.105163) slcan0 0A8#2200780E00000000
(1660594585.105324) slcan0 0A7#070000000A000600
(1660594585.105636) slcan0 0A6#0000000006000000
(1660594585.105871) slcan0 0A5#00050000000067FF
(1660594585.106089) slcan0 0A4#0000000000000000
(1660594585.106348) slcan0 0A3#EC39C31EECB5D71E
(1660594585.113097) slcan0 0AD#0000000000000000
(1660594585.113371) slcan0 0AC#0000FFFF09AB0A00
(1660594585.113667) slcan0 0AB#0000000000000000
(1660594585.113806) slcan0 0AA#0400090000000001
(1660594585.114207) slcan0 0A8#2200780EFEFFFDFF
(1660594585.114372) slcan0 0A7#050000000C000300
(1660594585.114577) slcan0 0A6#0000FDFFFEFF0000
(1660594585.114865) slcan0 0A5#00050000000068FF
(1660594585.115126) slcan0 0A4#0000000000000000
(1660594585.115295) slcan0 0A3#EB39C31EECB5D71E
(1660594585.120612) slcan0 6B2#00003F093F097F5C
(1660594585.122158) slcan0 0AD#0100000000000000
(1660594585.122425) slcan0 0AC#0000FFFF0CAB0A00
(1660594585.122630) slcan0 0AB#0000000000000000
(1660594585.122873) slcan0 0AA#0400090000000001
(1660594585.123128) slcan0 0A8#2200780E0100FCFF
(1660594585.123291) slcan0 0A7#060000000A000600
(1660594585.123569) slcan0 0A6#0300FDFF00000000
(1660594585.123812) slcan0 0A5#00050000000069FF
(1660594585.124037) slcan0 0A4#0000000000000000
(1660594585.124272) slcan0 0A3#EB39C31EECB5E71E
(1660594585.131399) slcan0 0AD#FFFF000000000000
(1660594585.131425) slcan0 0AC#0000FFFF0FAB0A00
(1660594585.131679) slcan0 0AB#0000000000000000
(1660594585.131845) slcan0 0AA#0400090000000001
(1660594585.132115) slcan0 0A8#2200780EFBFFFEFF
(1660594585.132371) slcan0 0A7#080000000A000600
(1660594585.132652) slcan0 0A6#FEFFFDFF03000000
(1660594585.132854) slcan0 0A5#01050000000068FF
(1660594585.133116) slcan0 0A4#0000000000000000
(1660594585.133278) slcan0 0A3#EC39C31EECB5E71E
(1660594585.140504) slcan0 0AD#0100000000000000
(1660594585.140528) slcan0 0AC#0000000012AB0A00
(1660594585.140752) slcan0 0AB#0000000000000000
(1660594585.141024) slcan0 0AA#0400090000000001
(1660594585.141211) slcan0 0A8#2200780E0000FFFF
(1660594585.141492) slcan0 0A7#060000000A000300
(1660594585.141763) slcan0 0A6#0000FFFF00000000
(1660594585.142021) slcan0 0A5#FF040000000067FF
(1660594585.142125) slcan0 0A4#0000000000000000
(1660594585.142509) slcan0 0A3#EC39C31EECB5D71E
(1660594585.143765) slcan0 0C0#0000000001000000
(1660594585.149142) slcan0 0AD#0100000000000000
(1660594585.149416) slcan0 0AC#0000FFFF15AB0A00
(1660594585.149922) slcan0 0AB#0000000000000000
(1660594585.149936) slcan0 0AA#0400090000000001
(1660594585.150162) slcan0 0A8#2200780EFEFFFDFF
(1660594585.150423) slcan0 0A7#050000000C000300
(1660594585.150599) slcan0 0A6#0000FDFFFEFF0000
(1660594585.150859) slcan0 0A5#00050000000067FF
(1660594585.151169) slcan0 0A4#0000000000000000
(1660594585.151323) slcan0 0A3#EB39C31EECB5D71E
(1660594585.158404) slcan0 0AD#0100000000000000
(1660594585.158426) slcan0 0AC#0000FFFF18AB0A00
(1660594585.158655) slcan0 0AB#0000000000000000
(1660594585.158869) slcan0 0AA#0400090000000001
(1660594585.159380) slcan0 0A8#2200780EFBFFFDFF
(1660594585.159395) slcan0 0A7#070000000A000600
(1660594585.159684) slcan0 0A6#FEFFFDFF03000000
(1660594585.159775) slcan0 0A5#FF040000000067FF
(1660594585.160296) slcan0 0A4#0000000000000000
(1660594585.160310) slcan0 0A3#EB39C31EECB5D71E
(1660594585.167126) slcan0 0AD#0200000000000000
(1660594585.167408) slcan0 0AC#000000001BAB0A00
(1660594585.167796) slcan0 0AB#0000000000000000
(1660594585.167812) slcan0 0AA#0400090000000001
(1660594585.168140) slcan0 0A8#2200780EFEFF0000
(1660594585.168312) slcan0 6B1#B1001F00131112BF
(1660594585.168536) slcan0 0A7#050000000A000800
(1660594585.168697) slcan0 0A6#FEFFFFFF00000000
(1660594585.168878) slcan0 6B2#00003F093F097F5C
(1660594585.169000) slcan0 0A5#01050000000067FF
(1660594585.169129) slcan0 0A4#0000000000000000
(1660594585.169309) slcan0 0A3#EB39C31EECB5D71E
(1660594585.194115) slcan0 0C3#000009A0000000
(1660594585.194321) slcan0 0AC#000001001EAB0A00
(1660594585.194485) slcan0 0AB#0000000000000000
(1660594585.194651) slcan0 0AD#0200000000000000
(1660594585.194774) slcan0 0A8#2200780EFCFF0200
(1660594585.194907) slcan0 0AA#0400090000000001
(1660594585.195097) slcan0 0AB#0000000000000000
(1660594585.195206) slcan0 0AC#0000000024AB0A00
(1660594585.195366) slcan0 0AD#0100000000000000
(1660594585.195518) slcan0 0AE#1000C01915051920
(1660594585.195769) slcan0 0A9#9600FA00FA015105
(1660594585.195787) slcan0 0A8#2200780EF9FFFBFF
(1660594585.196027) slcan0 0C0#0000000001000000
(1660594585.196181) slcan0 0A7#0600000007000300
(1660594585.196336) slcan0 0A6#FEFFF9FFFEFF0000
(1660594585.196466) slcan0 0A5#FF040000000067FF
(1660594585.196634) slcan0 0A4#0000000000000000
(1660594585.196727) slcan0 0A3#EB39C31EECB5E71E
(1660594585.197003) slcan0 0A2#F0D8F0D81B010000
(1660594585.197272) slcan0 0A1#1101FB07F007F0D8
(1660594585.197470) slcan0 0A0#E100E300E2000F01
(1660594585.203315) slcan0 0AD#0200000000000000
(1660594585.203543) slcan0 0AC#0000000027AB0A00
(1660594585.203786) slcan0 0AB#0000000000000000
(1660594585.203976) slcan0 0AA#0400090000000001
(1660594585.204268) slcan0 0A8#2200780E02000100
(1660594585.204527) slcan0 0A7#040000000A000600
(1660594585.204752) slcan0 0A6#0000020000000000
(1660594585.204975) slcan0 0A5#FE040000000067FF
(1660594585.205277) slcan0 0A4#0000000000000000
(1660594585.205432) slcan0 0A3#EB39C31EECB5D71E
(1660594585.212230) slcan0 0AD#0100000000000000
(1660594585.212479) slcan0 0AC#000000002AAB0A00
(1660594585.212665) slcan0 0AB#0000000000000000
(1660594585.212934) slcan0 0AA#0400090000000001
(1660594585.213225) slcan0 0A8#2200780E0400FFFF
(1660594585.213381) slcan0 0A7#050000000A000300
(1660594585.213674) slcan0 0A6#0300000003000000
(1660594585.213929) slcan0 0A5#00050000000067FF
(1660594585.214127) slcan0 0A4#0000000000000000
(1660594585.214324) slcan0 0A3#EC39C31EECB5D71E
(1660594585.216372) slcan0 6B2#00003F093F097F5C
(1660594585.221291) slcan0 0AD#FFFF000000000000
(1660594585.221455) slcan0 0AC#000002002DAB0A00
(1660594585.221693) slcan0 0AB#0000000000000000
(1660594585.221916) slcan0 0AA#0400090000000001
(1660594585.222181) slcan0 0A8#2200780E08000300
(1660594585.222376) slcan0 0A7#070000000A000100
(1660594585.222715) slcan0 0A6#0300050000000000
(1660594585.222911) slcan0 0A5#FF040000000068FF
(1660594585.223061) slcan0 0A4#0000000000000000
(1660594585.223297) slcan0 0A3#EB39C31EECB5D71E
(1660594585.230481) slcan0 0AD#0200000000000000
(1660594585.230498) slcan0 0AC#0000000030AB0A00
(1660594585.230651) slcan0 0AB#0000000000000000
(1660594585.230932) slcan0 0AA#0400090000000001
(1660594585.231197) slcan0 0A8#2200780E00000000
(1660594585.231391) slcan0 0A7#0800000007000300
(1660594585.231659) slcan0 0A6#0000000003000000
(1660594585.231945) slcan0 0A5#FF040000000068FF
(1660594585.232241) slcan0 0A4#0000000000000000
(1660594585.232385) slcan0 0A3#EB39C31EECB5D71E
(1660594585.239502) slcan0 0AD#0200000000000000
(1660594585.239527) slcan0 0AC#0000000033AB0A00
(1660594585.239751) slcan0 0AB#0000000000000000
(1660594585.239977) slcan0 0AA#0400090000000001
(1660594585.240143) slcan0 0A8#2200780E0000FFFF
(1660594585.240448) slcan0 0A7#0700000005000000
(1660594585.240712) slcan0 0A6#0000000003000000
(1660594585.240910) slcan0 0A5#FF040000000067FF
(1660594585.241182) slcan0 0A4#0000000000000000
(1660594585.241429) slcan0 0A3#EB39C31EECB5D71E
(1660594585.243731) slcan0 0C0#0000000001000000
(1660594585.248496) slcan0 0AD#0000000000000000
(1660594585.248522) slcan0 0AC#0000000036AB0A00
(1660594585.248790) slcan0 0AB#0000000000000000
(1660594585.248950) slcan0 0AA#0400090000000001
(1660594585.249214) slcan0 0A8#2200780E02000100
(1660594585.249432) slcan0 0A7#0700000007000600
(1660594585.249676) slcan0 0A6#0000020000000000
(1660594585.249951) slcan0 0A5#FF040000000067FF
(1660594585.250210) slcan0 0A4#0000000000000000
(1660594585.250356) slcan0 0A3#EB39C31EECB5D71E
(1660594585.257802) slcan0 0AD#0100000000000000
(1660594585.257828) slcan0 0AC#0000000039AB0A00
(1660594585.257831) slcan0 0AB#0000000000000000
(1660594585.257940) slcan0 0AA#0400090000000001
(1660594585.258128) slcan0 0A8#2200780E00000000
(1660594585.258435) slcan0 0A7#0500000007000300
(1660594585.258805) slcan0 0A6#0000000000000000
(1660594585.258831) slcan0 0A5#01050000000066FF
(1660594585.259181) slcan0 0A4#0000000000000000
(1660594585.259442) slcan0 0A3#EC39C31EECB5D71E
(1660594585.264443) slcan0 6B2#00003F093F097F5C
(1660594585.266297) slcan0 0AD#FFFF000000000000
(1660594585.266533) slcan0 0AC#0000FFFF3CAB0A00
(1660594585.266830) slcan0 0AB#0000000000000000
(1660594585.266961) slcan0 0AA#0400090000000001
(1660594585.267300) slcan0 0A8#2200780EFCFFFEFF
(1660594585.267556) slcan0 0A7#060000000A000300
(1660594585.267722) slcan0 0A6#FEFFFDFFFEFF0000
(1660594585.267950) slcan0 0A5#FF040000000066FF
(1660594585.268271) slcan0 0A4#0000000000000000
(1660594585.268430) slcan0 0A3#EC39C31EECB5D71E
(1660594585.294118) slcan0 0C3#000009A0000000
(1660594585.294288) slcan0 0AC#000001003FAB0A00
(1660594585.294426) slcan0 0AB#0000000000000000
(1660594585.294601) slcan0 0A9#9700FA00FA015105
(1660594585.294782) slcan0 0A8#2200780E00000200
(1660594585.294891) slcan0 0A8#2200780E00000000
(1660594585.295051) slcan0 0AA#0400090000000001
(1660594585.295163) slcan0 0A7#070000000A000300
(1660594585.295267) slcan0 0AA#0400090000000001
(1660594585.295426) slcan0 0AD#0000000000000000
(1660594585.295615) slcan0 0A5#01050000000067FF
(1660594585.295794) slcan0 0C0#0000000001000000
(1660594585.295965) slcan0 0A4#0000000000000000
(1660594585.296117) slcan0 0A3#EC39C31EECB5E71E
(1660594585.296279) slcan0 6B1#B1001F00131112BF
(1660594585.296441) slcan0 0A2#F0D8F0D81B010000
(1660594585.296541) slcan0 0A1#1101FB07F007F0D8
(1660594585.296699) slcan0 0A0#E100E300E2000F01
(1660594585.302173) slcan0 0AD#0100000000000000
(1660594585.302405) slcan0 0AC#0000000048AB0A00
(1660594585.302680) slcan0 0AB#0000000000000000
(1660594585.302953) slcan0 0AA#0400090000000001
(1660594585.303220) slcan0 0A8#2200780EFBFF0000
(1660594585.303385) slcan0 0A7#0700000003000600
(1660594585.303702) slcan0 0A6#FBFF000000000000
(1660594585.303966) slcan0 0A5#FF040000000067FF
(1660594585.304153) slcan0 0A4#0000000000000000
(1660594585.304412) slcan0 0A3#EC39C31EECB5D71E
(1660594585.311145) slcan0 0AD#0100000000000000
(1660594585.311461) slcan0 0AC#000001004BAB0A00
(1660594585.311804) slcan0 0AB#0000000000000000
(1660594585.311907) slcan0 0AA#0400090000000001
(1660594585.312239) slcan0 0A8#2200780EFDFF0200
(1660594585.312476) slcan0 0A7#0700000007000800
(1660594585.312594) slcan0 6B2#00003F093F097F5C
(1660594585.312802) slcan0 0A6#FBFF020002000000
(1660594585.312912) slcan0 0A5#00050000000067FF
(1660594585.313175) slcan0 0A4#0000000000000000
(1660594585.313365) slcan0 0A3#EC39C31EECB5D71E
(1660594585.320228) slcan0 0AD#0000000000000000
(1660594585.320465) slcan0 0AC#000001004EAB0A00
(1660594585.320650) slcan0 0AB#0000000000000000
(1660594585.320943) slcan0 0AA#0400090000000001
(1660594585.321226) slcan0 0A8#2200780E00000200
(1660594585.321392) slcan0 0A7#0500000007000300
(1660594585.321680) slcan0 0A6#FEFF020005000000
(1660594585.321937) slcan0 0A5#02050000000068FF
(1660594585.322075) slcan0 0A4#0000000000000000
(1660594585.322371) slcan0 0A3#EB39C31EECB5D71E
(1660594585.329580) slcan0 0AD#FFFF000000000000
(1660594585.329605) slcan0 0AC#0000FFFF51AB0A00
(1660594585.329825) slcan0 0AB#0000000000000000
(1660594585.329985) slcan0 0AA#0400090000000001
(1660594585.330261) slcan0 0A8#2200780EFBFFFEFF
(1660594585.330540) slcan0 0A7#050000000A000300
(1660594585.330784) slcan0 0A6#FEFFFDFF05000000
(1660594585.330998) slcan0 0A5#00050000000068FF
(1660594585.331285) slcan0 0A4#0000000000000000
(1660594585.331433) slcan0 0A3#EB35C31EECB5D71E
(1660594585.338319) slcan0 0AD#0200000000000000
(1660594585.338466) slcan0 0AC#0000010054AB0A00
(1660594585.338648) slcan0 0AB#0000000000000000
(1660594585.338920) slcan0 0AA#0400090000000001
(1660594585.339216) slcan0 0A8#2200780EFDFF0200
(1660594585.339382) slcan0 0A7#070000000C000100
(1660594585.339691) slcan0 0A6#FBFF0200FEFF0000
(1660594585.339926) slcan0 0A5#02050100000068FF
(1660594585.340128) slcan0 0A4#0000000000000000
(1660594585.340396) slcan0 0A3#EC39C31EECB5D71E
(1660594585.343846) slcan0 0C0#0000000001000000
(1660594585.347585) slcan0 0AD#0100000000000000
(1660594585.347611) slcan0 0AC#0000010057AB0A00
(1660594585.347660) slcan0 0AB#0000000000000000
(1660594585.347869) slcan0 0AA#0400090000000001
(1660594585.348150) slcan0 0A8#2200780E02000200
(1660594585.348422) slcan0 0A7#080000000A000100
(1660594585.348738) slcan0 0A6#0000020000000000
(1660594585.348793) slcan0 0A5#00050000000069FF
(1660594585.349131) slcan0 0A4#0000000000000000
(1660594585.349293) slcan0 0A3#EC39C31EECB5D71E
(1660594585.356311) slcan0 0AD#0100000000000000
(1660594585.356402) slcan0 0AC#000000005AAB0A00
(1660594585.356648) slcan0 0AB#0000000000000000
(1660594585.356893) slcan0 0AA#0400090000000001
(1660594585.357170) slcan0 0A8#2200780E00000000
(1660594585.357347) slcan0 0A7#0600000005000600
(1660594585.357681) slcan0 0A6#0000000000000000
(1660594585.357896) slcan0 0A5#01050000000068FF
(1660594585.358093) slcan0 0A4#0000000000000000
(1660594585.358372) slcan0 0A3#EC39C31EECB5D71E
(1660594585.360449) slcan0 6B2#00003F093F097F5C
(1660594585.365579) slcan0 0AD#0200000000000000
(1660594585.365602) slcan0 0AC#000000005DAB0A00
(1660594585.365607) slcan0 0AB#0000000000000000
(1660594585.365992) slcan0 0AA#0400090000000001
(1660594585.366132) slcan0 0A8#2200780EFEFF0000
(1660594585.366437) slcan0 0A7#0700000005000100
(1660594585.366710) slcan0 0A6#FEFF0000FDFF0000
(1660594585.366898) slcan0 0A5#FF040000000069FF
(1660594585.367064) slcan0 0A4#0000000000000000
(1660594585.367343) slcan0 0A3#EC39C31EECB5D71E
(1660594585.394050) slcan0 0C3#000009A0000000
(1660594585.394217) slcan0 0AC#0000020060AB0A00
(1660594585.394379) slcan0 0AB#0000000000000000
(1660594585.394534) slcan0 0A5#03050000000067FF
(1660594585.394735) slcan0 0A8#2200780E04000500
(1660594585.394843) slcan0 0A6#02000200FDFF0000
(1660594585.394937) slcan0 0A4#0000000000000000
(1660594585.395100) slcan0 0AA#0400090000000001
(1660594585.395287) slcan0 0A3#EC39C31EECB5D71E
(1660594585.395445) slcan0 0AD#0100000000000000
(1660594585.395604) slcan0 0C0#0000000001000000
(1660594585.395755) slcan0 0A1#1101FB07F007F0D8
(1660594585.395913) slcan0 0A0#E100E300E2001001
(1660594585.396056) slcan0 6B1#B1001F00131112BF
(1660594585.401114) slcan0 0AD#FFFF000000000000
(1660594585.401403) slcan0 0AC#0000010069AB0A00
(1660594585.401589) slcan0 0AB#0000000000000000
(1660594585.401853) slcan0 0AA#0400090000000001
(1660594585.402133) slcan0 0A8#2200780E00000200
(1660594585.402315) slcan0 0A7#0900000007000800
(1660594585.402574) slcan0 0A6#FEFF020002000000
(1660594585.402853) slcan0 0A5#02050000000066FF
(1660594585.403013) slcan0 0A4#0000000000000000
(1660594585.403275) slcan0 0A3#EB39C31EECB5D71E
(1660594585.408451) slcan0 6B2#00003F093F097F5C
(1660594585.410061) slcan0 0AD#0100000000000000
(1660594585.410388) slcan0 0AC#000003006CAB0A00
(1660594585.410671) slcan0 0AB#0000000000000000
(1660594585.410841) slcan0 0AA#0400090000000001
(1660594585.411048) slcan0 0A8#2200780E0A000700
(1660594585.411407) slcan0 0A7#070000000A000100
(1660594585.411565) slcan0 0A6#0300080000000000
(1660594585.411844) slcan0 0A5#02050000000066FF
(1660594585.412057) slcan0 0A4#0000000000000000
(1660594585.412305) slcan0 0A3#EB39C31EECB5E71E
(1660594585.419278) slcan0 0AD#FFFF000000000000
(1660594585.419489) slcan0 0AC#000000006FAB0A00
(1660594585.419550) slcan0 0AB#0000000000000000
(1660594585.419902) slcan0 0AA#0400090000000001
(1660594585.420174) slcan0 0A8#2200780EF8FFFEFF
(1660594585.420361) slcan0 0A7#0600000007000A00
(1660594585.420618) slcan0 0A6#FBFFFDFF00000000
(1660594585.420913) slcan0 0A5#02050000000066FF
(1660594585.421069) slcan0 0A4#0000000000000000
(1660594585.421336) slcan0 0A3#EB39C31EECB5E71E
(1660594585.428258) slcan0 0AD#0100000000000000
(1660594585.428317) slcan0 0AC#0000010072AB0A00
(1660594585.428746) slcan0 0AB#0000000000000000
(1660594585.428782) slcan0 0AA#0400090000000001
(1660594585.429065) slcan0 0A8#2200780E00000200
(1660594585.429420) slcan0 0A7#0600000007000600
(1660594585.429543) slcan0 0A6#FEFF020005000000
(1660594585.429931) slcan0 0A5#01050000000066FF
(1660594585.430094) slcan0 0A4#0000000000000000
(1660594585.430344) slcan0 0A3#EB39C31EECB5D71E
(1660594585.437275) slcan0 0AD#0200000000000000
(1660594585.437404) slcan0 0AC#0000FFFF75AB0A00
(1660594585.437616) slcan0 0AB#0000000000000000
(1660594585.437907) slcan0 0AA#0400090000000001
(1660594585.438080) slcan0 0A8#2200780EFFFFFEFF
(1660594585.438328) slcan0 0A7#0600000007000300
(1660594585.438628) slcan0 0A6#0000FEFFFDFF0000
(1660594585.438897) slcan0 0A5#03050000000067FF
(1660594585.439000) slcan0 0A4#0000000000000000
(1660594585.439257) slcan0 0A3#EB35C31EECB5D71E
(1660594585.443800) slcan0 0C0#0000000001000000
(1660594585.446151) slcan0 0AD#FFFF000000000000
(1660594585.446390) slcan0 0AC#0000010078AB0A00
(1660594585.446821) slcan0 0AB#0000000000000000
(1660594585.446845) slcan0 0AA#0400090000000001
(1660594585.447099) slcan0 0A8#2200780E06000200
(1660594585.447411) slcan0 0A7#0600000005000300
(1660594585.447577) slcan0 0A6#0300020002000000
(1660594585.447875) slcan0 0A5#03050000000068FF
(1660594585.448079) slcan0 0A4#0000000000000000
(1660594585.448293) slcan0 0A3#EC35C31EECB5D71E
(1660594585.455284) slcan0 0AD#0200000000000000
(1660594585.455445) slcan0 0AC#0000FFFF7BAB0A00
(1660594585.455684) slcan0 0AB#0000000000000000
(1660594585.456035) slcan0 0AA#0400090000000001
(1660594585.456271) slcan0 0A8#2200780E0000FEFF
(1660594585.456456) slcan0 0A7#0600000005000A00
(1660594585.456538) slcan0 6B2#00003F093F097F5C
(1660594585.456772) slcan0 0A6#0000FEFFFDFF0000
(1660594585.457004) slcan0 0A5#04050000000067FF
(1660594585.457182) slcan0 0A4#0000000000000000
(1660594585.457458) slcan0 0A3#EC39C31EECB5D71E
(1660594585.464147) slcan0 0AD#0200000000000000
(1660594585.464437) slcan0 0AC#000002007EAB0A00
(1660594585.464700) slcan0 0AB#0000000000000000
(1660594585.464965) slcan0 0AA#0400090000000001
(1660594585.465126) slcan0 0A8#2200780E05000500
(1660594585.465606) slcan0 0A7#0600000003000D00
(1660594585.465710) slcan0 0A6#0000050002000000
(1660594585.465901) slcan0 0A5#03050000000066FF
(1660594585.466146) slcan0 0A4#0000000000000000
(1660594585.466319) slcan0 0A3#EC39C31EECB5D71E
(1660594585.494375) slcan0 0C3#000009A0000000
(1660594585.494402) slcan0 0AC#0000010081AB0A00
(1660594585.494449) slcan0 0AB#0000000000000000
(1660594585.494586) slcan0 0AA#0400090000000001
(1660594585.494780) slcan0 0A0#E100E300E2000F01
(1660594585.494909) slcan0 0A1#1001FB07F007F0D8
(1660594585.495088) slcan0 0A8#2200780EFDFF0300
(1660594585.495242) slcan0 0AD#0000000000000000
(1660594585.495283) slcan0 0C0#0000000001000000
(1660594585.495502) slcan0 6B1#B1001F00131112BF
(1660594585.500434) slcan0 0AD#0000000000000000
(1660594585.500460) slcan0 0AC#0000FFFF8AAB0A00
(1660594585.500715) slcan0 0AB#0000000000000000
(1660594585.500880) slcan0 0AA#0400090000000001
(1660594585.501147) slcan0 0A8#2200780E0000FEFF
(1660594585.501439) slcan0 0A7#050000000A000600
(1660594585.501605) slcan0 0A6#0000FEFFFDFF0000
(1660594585.501892) slcan0 0A5#03050000000065FF
(1660594585.502144) slcan0 0A4#0000000000000000
(1660594585.502306) slcan0 0A3#EC39C31EECB5D71E
(1660594585.504482) slcan0 6B2#00003F093F097F5C
(1660594585.509723) slcan0 0AD#0200000000000000
(1660594585.509750) slcan0 0AC#0000FFFF8DAB0A00
(1660594585.509753) slcan0 0AB#0000000000000000
(1660594585.509905) slcan0 0AA#0400090000000001
(1660594585.510162) slcan0 0A8#2200780E0000FEFF
(1660594585.510382) slcan0 0A7#0A0000000A000600
(1660594585.510609) slcan0 0A6#0000FEFFFDFF0000
(1660594585.510890) slcan0 0A5#01050000000064FF
(1660594585.511095) slcan0 0A4#0000000000000000
(1660594585.511257) slcan0 0A3#EB39C31EECB5D71E
(1660594585.518245) slcan0 0AD#FFFF000000000000
(1660594585.518460) slcan0 0AC#0000010090AB0A00
(1660594585.518758) slcan0 0AB#0000000000000000
(1660594585.519030) slcan0 0AA#0400090000000001
(1660594585.519165) slcan0 0A8#2200780E02000200
(1660594585.519515) slcan0 0A7#0400000003000600
(1660594585.519775) slcan0 0A6#0000020005000000
(1660594585.519988) slcan0 0A5#02050000000064FF
(1660594585.520156) slcan0 0A4#0000000000000000
(1660594585.520412) slcan0 0A3#EB39C31EECB5D71E
(1660594585.527715) slcan0 0AD#0300000000000000
(1660594585.527741) slcan0 0AC#0000020093AB0A00
(1660594585.527745) slcan0 0AB#0000000000000000
(1660594585.527877) slcan0 0AA#0400090000000001
(1660594585.528171) slcan0 0A8#2200780E05000400
(1660594585.528343) slcan0 0A7#0600000005000300
(1660594585.528617) slcan0 0A6#0000050002000000
(1660594585.528920) slcan0 0A5#00050000000064FF
(1660594585.529081) slcan0 0A4#0000000000000000
(1660594585.529356) slcan0 0A3#EB39C31EECB5D71E
(1660594585.536375) slcan0 0AD#0100000000000000
(1660594585.536401) slcan0 0AC#0000000096AB0A00
(1660594585.536655) slcan0 0AB#0000000000000000
(1660594585.536938) slcan0 0AA#0400090000000001
(1660594585.537099) slcan0 0A8#2200780E06000100
(1660594585.537384) slcan0 0A7#0900000005000300
(1660594585.537678) slcan0 0A6#0300020000000000
(1660594585.537840) slcan0 0A5#00050000000065FF
(1660594585.538178) slcan0 0A4#0000000000000000
(1660594585.538415) slcan0 0A3#EB39C31EECB5D71E
(1660594585.543860) slcan0 0C0#0000000001000000
(1660594585.545140) slcan0 0AD#0200000000000000
(1660594585.545427) slcan0 0AC#0000000099AB0A00
(1660594585.545640) slcan0 0AB#0000000000000000
(1660594585.545890) slcan0 0AA#0400090000000001
